 temp-sweep      abs(v(alim))    v(drain)        v(gate)         v(source)       v(body)         i(Vd)           i(Vg)           i(Vs)           i(Vb)          
 2.50000000e+01  0.00000000e+00  0.00000000e+00  0.00000000e+00  0.00000000e+00  0.00000000e+00 -4.28624034e-21  6.54606973e-20 -4.28624034e-21 -5.68882166e-20 
 2.50000000e+01  5.00000000e-02  0.00000000e+00  0.00000000e+00  5.00000000e-02  0.00000000e+00  3.12331109e-09  3.79424878e-11 -3.16125358e-09  4.86224650e-19 
 2.50000000e+01  1.00000000e-01  0.00000000e+00  0.00000000e+00  1.00000000e-01  0.00000000e+00  3.99240897e-09  1.03320496e-10 -4.09572946e-09  1.70261896e-18 
 2.50000000e+01  1.50000000e-01  0.00000000e+00  0.00000000e+00  1.50000000e-01  0.00000000e+00  4.66430813e-09  2.03297567e-10 -4.86760570e-09  3.41668904e-18 
 2.50000000e+01  2.00000000e-01  0.00000000e+00  0.00000000e+00  2.00000000e-01  0.00000000e+00  5.37716300e-09  3.46405437e-10 -5.72356844e-09  5.63128781e-18 
 2.50000000e+01  2.50000000e-01  0.00000000e+00  0.00000000e+00  2.50000000e-01  0.00000000e+00  6.17205159e-09  5.42771050e-10 -6.71482264e-09  8.42686701e-18 
 2.50000000e+01  3.00000000e-01  0.00000000e+00  0.00000000e+00  3.00000000e-01  0.00000000e+00  7.06951429e-09  8.04376173e-10 -7.87389048e-09  1.19124762e-17 
 2.50000000e+01  3.50000000e-01  0.00000000e+00  0.00000000e+00  3.50000000e-01  0.00000000e+00  8.08709520e-09  1.14535517e-09 -9.23245039e-09  1.62206388e-17 
 2.50000000e+01  4.00000000e-01  0.00000000e+00  0.00000000e+00  4.00000000e-01  0.00000000e+00  9.24280348e-09  1.58233653e-09 -1.08251400e-08  2.15087209e-17 
 2.50000000e+01  4.50000000e-01  0.00000000e+00  0.00000000e+00  4.50000000e-01  0.00000000e+00  1.05562588e-08  2.13483443e-09 -1.26910933e-08  2.79621087e-17 
 2.50000000e+01  5.00000000e-01  0.00000000e+00  0.00000000e+00  5.00000000e-01  0.00000000e+00  1.20492863e-08  2.82569716e-09 -1.48749835e-08  3.57983440e-17 
 2.50000000e+01  5.50000000e-01  0.00000000e+00  0.00000000e+00  5.50000000e-01  0.00000000e+00  1.37463582e-08  3.68162053e-09 -1.74279788e-08  4.52720431e-17 
 2.50000000e+01  6.00000000e-01  0.00000000e+00  0.00000000e+00  6.00000000e-01  0.00000000e+00  1.56750017e-08  4.73373496e-09 -2.04087367e-08  5.66806019e-17 
 2.50000000e+01  6.50000000e-01  0.00000000e+00  0.00000000e+00  6.50000000e-01  0.00000000e+00  1.78662148e-08  6.01827655e-09 -2.38844914e-08  7.03707505e-17 
 2.50000000e+01  7.00000000e-01  0.00000000e+00  0.00000000e+00  7.00000000e-01  0.00000000e+00  2.03549116e-08  7.57735338e-09 -2.79322651e-08  8.67460493e-17 
 2.50000000e+01  7.50000000e-01  0.00000000e+00  0.00000000e+00  7.50000000e-01  0.00000000e+00  2.31804071e-08  9.45982028e-09 -3.26402275e-08  1.06275435e-16 
 2.50000000e+01  8.00000000e-01  0.00000000e+00  0.00000000e+00  8.00000000e-01  0.00000000e+00  2.63869506e-08  1.17222764e-08 -3.81092271e-08  1.29502944e-16 
 2.50000000e+01  8.50000000e-01  0.00000000e+00  0.00000000e+00  8.50000000e-01  0.00000000e+00  3.00243144e-08  1.44302025e-08 -4.44545171e-08  1.57058747e-16 
 2.50000000e+01  9.00000000e-01  0.00000000e+00  0.00000000e+00  9.00000000e-01  0.00000000e+00  3.41484466e-08  1.76592562e-08 -5.18077030e-08  1.89671654e-16 
 2.50000000e+01  9.50000000e-01  0.00000000e+00  0.00000000e+00  9.50000000e-01  0.00000000e+00  3.88221943e-08  2.14967474e-08 -6.03189423e-08  5.94790036e-16 
 2.50000000e+01  1.00000000e+00  0.00000000e+00  0.00000000e+00  1.00000000e+00  0.00000000e+00  4.41161083e-08  2.60433160e-08 -7.01594303e-08  5.95353027e-15 
 2.50000000e+01  1.05000000e+00  0.00000000e+00  0.00000000e+00  1.05000000e+00  0.00000000e+00  5.01093385e-08  3.14148415e-08 -8.15249097e-08  7.29680040e-13 
 2.50000000e+01  1.10000000e+00  0.00000000e+00  0.00000000e+00  1.10000000e+00  0.00000000e+00  5.68906327e-08  3.77446122e-08 -9.46725229e-08  3.72780360e-11 
