 temp-sweep      abs(v(alim))    v(drain)        v(gate)         v(source)       v(body)         i(Vd)           i(Vg)           i(Vs)           i(Vb)          
 2.50000000e+01  0.00000000e+00  0.00000000e+00  0.00000000e+00  0.00000000e+00  0.00000000e+00 -2.06069249e-21  3.14714891e-20 -2.06069249e-21 -2.73501041e-20 
 2.50000000e+01  5.00000000e-02  0.00000000e+00  0.00000000e+00  5.00000000e-02  0.00000000e+00  1.50107318e-09  1.82415807e-11 -1.51931476e-09  2.49739942e-19 
 2.50000000e+01  1.00000000e-01  0.00000000e+00  0.00000000e+00  1.00000000e-01  0.00000000e+00  1.91878035e-09  4.96733155e-11 -1.96845367e-09  8.36960133e-19 
 2.50000000e+01  1.50000000e-01  0.00000000e+00  0.00000000e+00  1.50000000e-01  0.00000000e+00  2.24173963e-09  9.77392154e-11 -2.33947884e-09  1.66142597e-18 
 2.50000000e+01  2.00000000e-01  0.00000000e+00  0.00000000e+00  2.00000000e-01  0.00000000e+00  2.58437450e-09  1.66541076e-10 -2.75091558e-09  2.72618514e-18 
 2.50000000e+01  2.50000000e-01  0.00000000e+00  0.00000000e+00  2.50000000e-01  0.00000000e+00  2.96643151e-09  2.60947621e-10 -3.22737913e-09  4.07014692e-18 
 2.50000000e+01  3.00000000e-01  0.00000000e+00  0.00000000e+00  3.00000000e-01  0.00000000e+00  3.39778532e-09  3.86719317e-10 -3.78450465e-09  5.74575963e-18 
 2.50000000e+01  3.50000000e-01  0.00000000e+00  0.00000000e+00  3.50000000e-01  0.00000000e+00  3.88686932e-09  5.50651528e-10 -4.43752085e-09  7.81672415e-18 
 2.50000000e+01  4.00000000e-01  0.00000000e+00  0.00000000e+00  4.00000000e-01  0.00000000e+00  4.44233980e-09  7.60738727e-10 -5.20307853e-09  1.03586772e-17 
 2.50000000e+01  4.50000000e-01  0.00000000e+00  0.00000000e+00  4.50000000e-01  0.00000000e+00  5.07362686e-09  1.02636272e-09 -6.09998960e-09  1.34607222e-17 
 2.50000000e+01  5.00000000e-01  0.00000000e+00  0.00000000e+00  5.00000000e-01  0.00000000e+00  5.79122039e-09  1.35850827e-09 -7.14972868e-09  1.72274175e-17 
 2.50000000e+01  5.50000000e-01  0.00000000e+00  0.00000000e+00  5.50000000e-01  0.00000000e+00  6.60688256e-09  1.77000991e-09 -8.37689248e-09  2.17811406e-17 
 2.50000000e+01  6.00000000e-01  0.00000000e+00  0.00000000e+00  6.00000000e-01  0.00000000e+00  7.53384369e-09  2.27583418e-09 -9.80967789e-09  2.72648306e-17 
 2.50000000e+01  6.50000000e-01  0.00000000e+00  0.00000000e+00  6.50000000e-01  0.00000000e+00  8.58700237e-09  2.89340228e-09 -1.14804047e-08  3.38451381e-17 
 2.50000000e+01  7.00000000e-01  0.00000000e+00  0.00000000e+00  7.00000000e-01  0.00000000e+00  9.78313932e-09  3.64295850e-09 -1.34260979e-08  4.17160287e-17 
 2.50000000e+01  7.50000000e-01  0.00000000e+00  0.00000000e+00  7.50000000e-01  0.00000000e+00  1.11411505e-08  4.54799073e-09 -1.56891413e-08  5.11028905e-17 
 2.50000000e+01  8.00000000e-01  0.00000000e+00  0.00000000e+00  8.00000000e-01  0.00000000e+00  1.26823035e-08  5.63571012e-09 -1.83180137e-08  6.22672075e-17 
 2.50000000e+01  8.50000000e-01  0.00000000e+00  0.00000000e+00  8.50000000e-01  0.00000000e+00  1.44305207e-08  6.93759780e-09 -2.13681186e-08  7.55118639e-17 
 2.50000000e+01  9.00000000e-01  0.00000000e+00  0.00000000e+00  9.00000000e-01  0.00000000e+00  1.64126927e-08  8.49002769e-09 -2.49027205e-08  9.11871544e-17 
 2.50000000e+01  9.50000000e-01  0.00000000e+00  0.00000000e+00  9.50000000e-01  0.00000000e+00  1.86590263e-08  1.03349756e-08 -2.89940022e-08  2.86179731e-16 
 2.50000000e+01  1.00000000e+00  0.00000000e+00  0.00000000e+00  1.00000000e+00  0.00000000e+00  2.12034312e-08  1.25208264e-08 -3.37242604e-08  2.90099415e-15 
 2.50000000e+01  1.05000000e+00  0.00000000e+00  0.00000000e+00  1.05000000e+00  0.00000000e+00  2.40839506e-08  1.51032911e-08 -3.91876061e-08  3.64411856e-13 
 2.50000000e+01  1.10000000e+00  0.00000000e+00  0.00000000e+00  1.10000000e+00  0.00000000e+00  2.73432414e-08  1.81464509e-08 -4.55083293e-08  1.86369760e-11 
