 temp-sweep      abs(v(alim))    v(drain)        v(gate)         v(source)       v(body)         i(Vd)           i(Vg)           i(Vs)           i(Vb)          
 2.50000000e+01  0.00000000e+00  0.00000000e+00  0.00000000e+00  0.00000000e+00  0.00000000e+00 -5.76993887e-21  8.81201693e-20 -5.76993887e-21 -7.65802916e-20 
 2.50000000e+01  5.00000000e-02  0.00000000e+00  0.00000000e+00  5.00000000e-02  0.00000000e+00  4.20481784e-09  5.10764258e-11 -4.25589427e-09  6.43880848e-19 
 2.50000000e+01  1.00000000e-01  0.00000000e+00  0.00000000e+00  1.00000000e-01  0.00000000e+00  5.37484605e-09  1.39085283e-10 -5.51393134e-09  2.27972716e-18 
 2.50000000e+01  1.50000000e-01  0.00000000e+00  0.00000000e+00  1.50000000e-01  0.00000000e+00  6.27937349e-09  2.73669801e-10 -6.55304330e-09  4.58687236e-18 
 2.50000000e+01  2.00000000e-01  0.00000000e+00  0.00000000e+00  2.00000000e-01  0.00000000e+00  7.23904385e-09  4.66315010e-10 -7.70535887e-09  7.56803874e-18 
 2.50000000e+01  2.50000000e-01  0.00000000e+00  0.00000000e+00  2.50000000e-01  0.00000000e+00  8.30915618e-09  7.30653332e-10 -9.03980952e-09  1.13313732e-17 
 2.50000000e+01  3.00000000e-01  0.00000000e+00  0.00000000e+00  3.00000000e-01  0.00000000e+00  9.51736134e-09  1.08281407e-09 -1.06001754e-08  1.60236600e-17 
 2.50000000e+01  3.50000000e-01  0.00000000e+00  0.00000000e+00  3.50000000e-01  0.00000000e+00  1.08872773e-08  1.54182425e-09 -1.24291015e-08  2.18233048e-17 
 2.50000000e+01  4.00000000e-01  0.00000000e+00  0.00000000e+00  4.00000000e-01  0.00000000e+00  1.24431485e-08  2.13006838e-09 -1.45732169e-08  2.89421606e-17 
 2.50000000e+01  4.50000000e-01  0.00000000e+00  0.00000000e+00  4.50000000e-01  0.00000000e+00  1.42113878e-08  2.87381553e-09 -1.70852033e-08  3.76298031e-17 
 2.50000000e+01  5.00000000e-01  0.00000000e+00  0.00000000e+00  5.00000000e-01  0.00000000e+00  1.62213771e-08  3.80382302e-09 -2.00252001e-08  4.81790977e-17 
 2.50000000e+01  5.50000000e-01  0.00000000e+00  0.00000000e+00  5.50000000e-01  0.00000000e+00  1.85060623e-08  4.95602752e-09 -2.34620899e-08  6.09328209e-17 
 2.50000000e+01  6.00000000e-01  0.00000000e+00  0.00000000e+00  6.00000000e-01  0.00000000e+00  2.11025019e-08  6.37233536e-09 -2.74748374e-08  7.62913417e-17 
 2.50000000e+01  6.50000000e-01  0.00000000e+00  0.00000000e+00  6.50000000e-01  0.00000000e+00  2.40524272e-08  8.10152586e-09 -3.21539532e-08  9.47214451e-17 
 2.50000000e+01  7.00000000e-01  0.00000000e+00  0.00000000e+00  7.00000000e-01  0.00000000e+00  2.74028413e-08  1.02002830e-08 -3.76031244e-08  1.16766424e-16 
 2.50000000e+01  7.50000000e-01  0.00000000e+00  0.00000000e+00  7.50000000e-01  0.00000000e+00  3.12066723e-08  1.27343729e-08 -4.39410453e-08  1.43057584e-16 
 2.50000000e+01  8.00000000e-01  0.00000000e+00  0.00000000e+00  8.00000000e-01  0.00000000e+00  3.55234908e-08  1.57799866e-08 -5.13034775e-08  1.74327333e-16 
 2.50000000e+01  8.50000000e-01  0.00000000e+00  0.00000000e+00  8.50000000e-01  0.00000000e+00  4.04203031e-08  1.94252712e-08 -5.98455745e-08  2.11424039e-16 
 2.50000000e+01  9.00000000e-01  0.00000000e+00  0.00000000e+00  9.00000000e-01  0.00000000e+00  4.59724294e-08  2.37720738e-08 -6.97445034e-08  2.55328858e-16 
 2.50000000e+01  9.50000000e-01  0.00000000e+00  0.00000000e+00  9.50000000e-01  0.00000000e+00  5.22644776e-08  2.89379264e-08 -8.12024048e-08  8.00524739e-16 
 2.50000000e+01  1.00000000e+00  0.00000000e+00  0.00000000e+00  1.00000000e+00  0.00000000e+00  5.93914269e-08  3.50583060e-08 -9.44497409e-08  7.98851293e-15 
 2.50000000e+01  1.05000000e+00  0.00000000e+00  0.00000000e+00  1.05000000e+00  0.00000000e+00  6.74598326e-08  4.22892040e-08 -1.09750010e-07  9.73189559e-13 
 2.50000000e+01  1.10000000e+00  0.00000000e+00  0.00000000e+00  1.10000000e+00  0.00000000e+00  7.65891711e-08  5.08100469e-08 -1.27448923e-07  4.97053006e-11 
