 temp-sweep      abs(v(alim))    v(drain)        v(gate)         v(source)       v(body)         i(Vd)           i(Vg)           i(Vs)           i(Vb)          
 2.50000000e+01  0.00000000e+00  0.00000000e+00  0.00000000e+00  0.00000000e+00  0.00000000e+00 -2.80254178e-21  4.28012252e-20 -2.80254178e-21 -3.71961416e-20 
 2.50000000e+01  5.00000000e-02  0.00000000e+00  0.00000000e+00  5.00000000e-02  0.00000000e+00  2.04181321e-09  2.48085498e-11 -2.06662176e-09  3.28568361e-19 
 2.50000000e+01  1.00000000e-01  0.00000000e+00  0.00000000e+00  1.00000000e-01  0.00000000e+00  2.60998266e-09  6.75557091e-11 -2.67753837e-09  1.12551234e-18 
 2.50000000e+01  1.50000000e-01  0.00000000e+00  0.00000000e+00  1.50000000e-01  0.00000000e+00  3.04925456e-09  1.32925333e-10 -3.18217989e-09  2.24651086e-18 
 2.50000000e+01  2.00000000e-01  0.00000000e+00  0.00000000e+00  2.00000000e-01  0.00000000e+00  3.51529523e-09  2.26495864e-10 -3.74179110e-09  3.69454702e-18 
 2.50000000e+01  2.50000000e-01  0.00000000e+00  0.00000000e+00  2.50000000e-01  0.00000000e+00  4.03496170e-09  3.54888765e-10 -4.38985047e-09  5.52237752e-18 
 2.50000000e+01  3.00000000e-01  0.00000000e+00  0.00000000e+00  3.00000000e-01  0.00000000e+00  4.62168388e-09  5.25938270e-10 -5.14762215e-09  7.80131762e-18 
 2.50000000e+01  3.50000000e-01  0.00000000e+00  0.00000000e+00  3.50000000e-01  0.00000000e+00  5.28693203e-09  7.48886077e-10 -6.03581812e-09  1.06180088e-17 
 2.50000000e+01  4.00000000e-01  0.00000000e+00  0.00000000e+00  4.00000000e-01  0.00000000e+00  6.04248006e-09  1.03460467e-09 -7.07708474e-09  1.40753307e-17 
 2.50000000e+01  4.50000000e-01  0.00000000e+00  0.00000000e+00  4.50000000e-01  0.00000000e+00  6.90115459e-09  1.39585329e-09 -8.29700790e-09  1.82944807e-17 
 2.50000000e+01  5.00000000e-01  0.00000000e+00  0.00000000e+00  5.00000000e-01  0.00000000e+00  7.87722383e-09  1.84757124e-09 -9.72479509e-09  2.34176780e-17 
 2.50000000e+01  5.50000000e-01  0.00000000e+00  0.00000000e+00  5.50000000e-01  0.00000000e+00  8.98668664e-09  2.40721346e-09 -1.13939001e-08  2.96113792e-17 
 2.50000000e+01  6.00000000e-01  0.00000000e+00  0.00000000e+00  6.00000000e-01  0.00000000e+00  1.02475389e-08  3.09513446e-09 -1.33426734e-08  3.70700084e-17 
 2.50000000e+01  6.50000000e-01  0.00000000e+00  0.00000000e+00  6.50000000e-01  0.00000000e+00  1.16800456e-08  3.93502707e-09 -1.56150727e-08  4.60202423e-17 
 2.50000000e+01  7.00000000e-01  0.00000000e+00  0.00000000e+00  7.00000000e-01  0.00000000e+00  1.33070319e-08  4.95442351e-09 -1.82614555e-08  5.67259106e-17 
 2.50000000e+01  7.50000000e-01  0.00000000e+00  0.00000000e+00  7.50000000e-01  0.00000000e+00  1.51542000e-08  6.18526732e-09 -2.13394674e-08  6.94935835e-17 
 2.50000000e+01  8.00000000e-01  0.00000000e+00  0.00000000e+00  8.00000000e-01  0.00000000e+00  1.72504780e-08  7.66456566e-09 -2.49150437e-08  8.46789279e-17 
 2.50000000e+01  8.50000000e-01  0.00000000e+00  0.00000000e+00  8.50000000e-01  0.00000000e+00  1.96284047e-08  9.43513285e-09 -2.90635377e-08  1.02693923e-16 
 2.50000000e+01  9.00000000e-01  0.00000000e+00  0.00000000e+00  9.00000000e-01  0.00000000e+00  2.23245565e-08  1.15464374e-08 -3.38709941e-08  1.24015032e-16 
 2.50000000e+01  9.50000000e-01  0.00000000e+00  0.00000000e+00  9.50000000e-01  0.00000000e+00  2.53800201e-08  1.40555665e-08 -3.94355871e-08  3.89052182e-16 
 2.50000000e+01  1.00000000e+00  0.00000000e+00  0.00000000e+00  1.00000000e+00  0.00000000e+00  2.88409188e-08  1.70283234e-08 -4.58692461e-08  3.91852152e-15 
 2.50000000e+01  1.05000000e+00  0.00000000e+00  0.00000000e+00  1.05000000e+00  0.00000000e+00  3.27589979e-08  2.05404752e-08 -5.32999593e-08  4.86168359e-13 
 2.50000000e+01  1.10000000e+00  0.00000000e+00  0.00000000e+00  1.10000000e+00  0.00000000e+00  3.71922774e-08  2.46791723e-08 -6.18963003e-08  2.48506794e-11 
