 temp-sweep      abs(v(alim))    v(drain)        v(gate)         v(source)       v(body)         i(Vd)           i(Vg)           i(Vs)           i(Vb)          
 2.50000000e+01  0.00000000e+00  0.00000000e+00  0.00000000e+00  0.00000000e+00  0.00000000e+00 -1.31884320e-21  2.01417530e-20 -1.31884320e-21 -1.75040667e-20 
 2.50000000e+01  5.00000000e-02  0.00000000e+00  0.00000000e+00  5.00000000e-02  0.00000000e+00  9.60351190e-10  1.16746117e-11 -9.72025801e-10  1.70910873e-19 
 2.50000000e+01  1.00000000e-01  0.00000000e+00  0.00000000e+00  1.00000000e-01  0.00000000e+00  1.22760000e-09  3.17909219e-11 -1.25939092e-09  5.48409906e-19 
 2.50000000e+01  1.50000000e-01  0.00000000e+00  0.00000000e+00  1.50000000e-01  0.00000000e+00  1.43424871e-09  6.25530979e-11 -1.49680181e-09  1.07634906e-18 
 2.50000000e+01  2.00000000e-01  0.00000000e+00  0.00000000e+00  2.00000000e-01  0.00000000e+00  1.65348041e-09  1.06586289e-10 -1.76006670e-09  1.75783961e-18 
 2.50000000e+01  2.50000000e-01  0.00000000e+00  0.00000000e+00  2.50000000e-01  0.00000000e+00  1.89793119e-09  1.67006478e-10 -2.06493767e-09  2.61794351e-18 
 2.50000000e+01  3.00000000e-01  0.00000000e+00  0.00000000e+00  3.00000000e-01  0.00000000e+00  2.17392048e-09  2.47500363e-10 -2.42142085e-09  3.69024259e-18 
 2.50000000e+01  3.50000000e-01  0.00000000e+00  0.00000000e+00  3.50000000e-01  0.00000000e+00  2.48684478e-09  3.52416979e-10 -2.83926176e-09  5.01549767e-18 
 2.50000000e+01  4.00000000e-01  0.00000000e+00  0.00000000e+00  4.00000000e-01  0.00000000e+00  2.84224286e-09  4.86872786e-10 -3.32911565e-09  6.64210321e-18 
 2.50000000e+01  4.50000000e-01  0.00000000e+00  0.00000000e+00  4.50000000e-01  0.00000000e+00  3.24614838e-09  6.56872142e-10 -3.90302053e-09  8.62706954e-18 
 2.50000000e+01  5.00000000e-01  0.00000000e+00  0.00000000e+00  5.00000000e-01  0.00000000e+00  3.70527297e-09  8.69445296e-10 -4.57471828e-09  1.10372951e-17 
 2.50000000e+01  5.50000000e-01  0.00000000e+00  0.00000000e+00  5.50000000e-01  0.00000000e+00  4.22714224e-09  1.13280634e-09 -5.35994860e-09  1.39510796e-17 
 2.50000000e+01  6.00000000e-01  0.00000000e+00  0.00000000e+00  6.00000000e-01  0.00000000e+00  4.82022109e-09  1.45653388e-09 -6.27675499e-09  1.74598779e-17 
 2.50000000e+01  6.50000000e-01  0.00000000e+00  0.00000000e+00  6.50000000e-01  0.00000000e+00  5.49404181e-09  1.85177747e-09 -7.34581930e-09  2.16703166e-17 
 2.50000000e+01  7.00000000e-01  0.00000000e+00  0.00000000e+00  7.00000000e-01  0.00000000e+00  6.25934090e-09  2.33149345e-09 -8.59083438e-09  2.67064988e-17 
 2.50000000e+01  7.50000000e-01  0.00000000e+00  0.00000000e+00  7.50000000e-01  0.00000000e+00  7.12820825e-09  2.91071409e-09 -1.00389224e-08  3.27126325e-17 
 2.50000000e+01  8.00000000e-01  0.00000000e+00  0.00000000e+00  8.00000000e-01  0.00000000e+00  8.11425119e-09  3.60685451e-09 -1.17211057e-08  3.98560212e-17 
 2.50000000e+01  8.50000000e-01  0.00000000e+00  0.00000000e+00  8.50000000e-01  0.00000000e+00  9.23277568e-09  4.44006265e-09 -1.36728384e-08  4.83304575e-17 
 2.50000000e+01  9.00000000e-01  0.00000000e+00  0.00000000e+00  9.00000000e-01  0.00000000e+00  1.05009869e-08  5.43361780e-09 -1.59346048e-08  5.83600693e-17 
 2.50000000e+01  9.50000000e-01  0.00000000e+00  0.00000000e+00  9.50000000e-01  0.00000000e+00  1.19382121e-08  6.61438452e-09 -1.85525968e-08  1.83299982e-16 
 2.50000000e+01  1.00000000e+00  0.00000000e+00  0.00000000e+00  1.00000000e+00  0.00000000e+00  1.35661478e-08  8.01332903e-09 -2.15794787e-08  1.88342231e-15 
 2.50000000e+01  1.05000000e+00  0.00000000e+00  0.00000000e+00  1.05000000e+00  0.00000000e+00  1.54091354e-08  9.66610653e-09 -2.50754846e-08  2.42654878e-13 
 2.50000000e+01  1.10000000e+00  0.00000000e+00  0.00000000e+00  1.10000000e+00  0.00000000e+00  1.74944690e-08  1.16137289e-08 -2.91206211e-08  1.24232603e-11 
