******
** ngspice-36 : Circuit level simulation program
** The U. C. Berkeley CAD Group
** Copyright 1985-1994, Regents of the University of California.
** Copyright 2001-2020, The ngspice team.
** Please get your ngspice manual from http://ngspice.sourceforge.net/docs.html
** Please file your bug-reports at http://ngspice.sourceforge.net/bugrep.html
** Creation Date: Sat Jan  1 18:54:42 UTC 2022
******

No compatibility mode selected!


Circuit: * conduction pmos *

Doing analysis at TEMP = 27.000000 and TNOM = 27.000000


No. of Data Rows : 23
                              * conduction pmos *
                              DC transfer characteristic  Tue Mar  5 16:23:07  2024
--------------------------------------------------------------------------------
Index   temp-sweep      abs(v(alim))    v(drain)        v(gate)         
--------------------------------------------------------------------------------
0	2.500000e+01	0.000000e+00	0.000000e+00	0.000000e+00	
1	2.500000e+01	5.000000e-02	0.000000e+00	5.000000e-02	
2	2.500000e+01	1.000000e-01	0.000000e+00	1.000000e-01	
3	2.500000e+01	1.500000e-01	0.000000e+00	1.500000e-01	
4	2.500000e+01	2.000000e-01	0.000000e+00	2.000000e-01	
5	2.500000e+01	2.500000e-01	0.000000e+00	2.500000e-01	
6	2.500000e+01	3.000000e-01	0.000000e+00	3.000000e-01	
7	2.500000e+01	3.500000e-01	0.000000e+00	3.500000e-01	
8	2.500000e+01	4.000000e-01	0.000000e+00	4.000000e-01	
9	2.500000e+01	4.500000e-01	0.000000e+00	4.500000e-01	
10	2.500000e+01	5.000000e-01	0.000000e+00	5.000000e-01	
11	2.500000e+01	5.500000e-01	0.000000e+00	5.500000e-01	
12	2.500000e+01	6.000000e-01	0.000000e+00	6.000000e-01	
13	2.500000e+01	6.500000e-01	0.000000e+00	6.500000e-01	
14	2.500000e+01	7.000000e-01	0.000000e+00	7.000000e-01	
15	2.500000e+01	7.500000e-01	0.000000e+00	7.500000e-01	
16	2.500000e+01	8.000000e-01	0.000000e+00	8.000000e-01	
17	2.500000e+01	8.500000e-01	0.000000e+00	8.500000e-01	
18	2.500000e+01	9.000000e-01	0.000000e+00	9.000000e-01	
19	2.500000e+01	9.500000e-01	0.000000e+00	9.500000e-01	
20	2.500000e+01	1.000000e+00	0.000000e+00	1.000000e+00	
21	2.500000e+01	1.050000e+00	0.000000e+00	1.050000e+00	
22	2.500000e+01	1.100000e+00	0.000000e+00	1.100000e+00	

                              * conduction pmos *
                              DC transfer characteristic  Tue Mar  5 16:23:07  2024
--------------------------------------------------------------------------------
Index   temp-sweep      v(source)       v(body)         i(vd)           
--------------------------------------------------------------------------------
0	2.500000e+01	1.100000e+00	0.000000e+00	1.802396e-04	
1	2.500000e+01	1.100000e+00	0.000000e+00	1.746617e-04	
2	2.500000e+01	1.100000e+00	0.000000e+00	1.687032e-04	
3	2.500000e+01	1.100000e+00	0.000000e+00	1.623455e-04	
4	2.500000e+01	1.100000e+00	0.000000e+00	1.555683e-04	
5	2.500000e+01	1.100000e+00	0.000000e+00	1.483492e-04	
6	2.500000e+01	1.100000e+00	0.000000e+00	1.406630e-04	
7	2.500000e+01	1.100000e+00	0.000000e+00	1.324818e-04	
8	2.500000e+01	1.100000e+00	0.000000e+00	1.237737e-04	
9	2.500000e+01	1.100000e+00	0.000000e+00	1.145030e-04	
10	2.500000e+01	1.100000e+00	0.000000e+00	1.046314e-04	
11	2.500000e+01	1.100000e+00	0.000000e+00	9.412269e-05	
12	2.500000e+01	1.100000e+00	0.000000e+00	8.295537e-05	
13	2.500000e+01	1.100000e+00	0.000000e+00	7.115013e-05	
14	2.500000e+01	1.100000e+00	0.000000e+00	5.882185e-05	
15	2.500000e+01	1.100000e+00	0.000000e+00	4.626066e-05	
16	2.500000e+01	1.100000e+00	0.000000e+00	3.402064e-05	
17	2.500000e+01	1.100000e+00	0.000000e+00	2.293360e-05	
18	2.500000e+01	1.100000e+00	0.000000e+00	1.391409e-05	
19	2.500000e+01	1.100000e+00	0.000000e+00	7.535091e-06	
20	2.500000e+01	1.100000e+00	0.000000e+00	3.682334e-06	
21	2.500000e+01	1.100000e+00	0.000000e+00	1.676732e-06	
22	2.500000e+01	1.100000e+00	0.000000e+00	7.414598e-07	

                              * conduction pmos *
                              DC transfer characteristic  Tue Mar  5 16:23:07  2024
--------------------------------------------------------------------------------
Index   temp-sweep      i(vg)           i(vs)           i(vb)           
--------------------------------------------------------------------------------
0	2.500000e+01	5.466757e-08	-4.30137e-03	4.121080e-03	
1	2.500000e+01	4.496499e-08	-4.29579e-03	4.121082e-03	
2	2.500000e+01	3.731789e-08	-4.28982e-03	4.121082e-03	
3	2.500000e+01	3.102854e-08	-4.28346e-03	4.121083e-03	
4	2.500000e+01	2.568833e-08	-4.27668e-03	4.121083e-03	
5	2.500000e+01	2.107043e-08	-4.26945e-03	4.121083e-03	
6	2.500000e+01	1.704269e-08	-4.26176e-03	4.121083e-03	
7	2.500000e+01	1.351687e-08	-4.25358e-03	4.121083e-03	
8	2.500000e+01	1.042449e-08	-4.24487e-03	4.121083e-03	
9	2.500000e+01	7.706637e-09	-4.23559e-03	4.121083e-03	
10	2.500000e+01	5.309805e-09	-4.22572e-03	4.121083e-03	
11	2.500000e+01	3.184253e-09	-4.21521e-03	4.121083e-03	
12	2.500000e+01	1.283175e-09	-4.20404e-03	4.121083e-03	
13	2.500000e+01	-4.37836e-10	-4.19223e-03	4.121083e-03	
14	2.500000e+01	-2.02123e-09	-4.17990e-03	4.121083e-03	
15	2.500000e+01	-3.50754e-09	-4.16734e-03	4.121083e-03	
16	2.500000e+01	-4.93265e-09	-4.15510e-03	4.121083e-03	
17	2.500000e+01	-6.31715e-09	-4.14401e-03	4.121083e-03	
18	2.500000e+01	-7.68417e-09	-4.13499e-03	4.121083e-03	
19	2.500000e+01	-9.14431e-09	-4.12861e-03	4.121083e-03	
20	2.500000e+01	-1.09072e-08	-4.12475e-03	4.121083e-03	
21	2.500000e+01	-1.39006e-08	-4.12275e-03	4.121084e-03	
22	2.500000e+01	-2.27337e-08	-4.12181e-03	4.121088e-03	
