******
** ngspice-36 : Circuit level simulation program
** The U. C. Berkeley CAD Group
** Copyright 1985-1994, Regents of the University of California.
** Copyright 2001-2020, The ngspice team.
** Please get your ngspice manual from http://ngspice.sourceforge.net/docs.html
** Please file your bug-reports at http://ngspice.sourceforge.net/bugrep.html
** Creation Date: Sat Jan  1 18:54:42 UTC 2022
******

No compatibility mode selected!


Circuit: * conduction pmos *

Doing analysis at TEMP = 27.000000 and TNOM = 27.000000


No. of Data Rows : 23
                              * conduction pmos *
                              DC transfer characteristic  Tue Mar  5 16:23:16  2024
--------------------------------------------------------------------------------
Index   temp-sweep      abs(v(alim))    v(drain)        v(gate)         
--------------------------------------------------------------------------------
0	2.500000e+01	0.000000e+00	0.000000e+00	0.000000e+00	
1	2.500000e+01	5.000000e-02	0.000000e+00	5.000000e-02	
2	2.500000e+01	1.000000e-01	0.000000e+00	1.000000e-01	
3	2.500000e+01	1.500000e-01	0.000000e+00	1.500000e-01	
4	2.500000e+01	2.000000e-01	0.000000e+00	2.000000e-01	
5	2.500000e+01	2.500000e-01	0.000000e+00	2.500000e-01	
6	2.500000e+01	3.000000e-01	0.000000e+00	3.000000e-01	
7	2.500000e+01	3.500000e-01	0.000000e+00	3.500000e-01	
8	2.500000e+01	4.000000e-01	0.000000e+00	4.000000e-01	
9	2.500000e+01	4.500000e-01	0.000000e+00	4.500000e-01	
10	2.500000e+01	5.000000e-01	0.000000e+00	5.000000e-01	
11	2.500000e+01	5.500000e-01	0.000000e+00	5.500000e-01	
12	2.500000e+01	6.000000e-01	0.000000e+00	6.000000e-01	
13	2.500000e+01	6.500000e-01	0.000000e+00	6.500000e-01	
14	2.500000e+01	7.000000e-01	0.000000e+00	7.000000e-01	
15	2.500000e+01	7.500000e-01	0.000000e+00	7.500000e-01	
16	2.500000e+01	8.000000e-01	0.000000e+00	8.000000e-01	
17	2.500000e+01	8.500000e-01	0.000000e+00	8.500000e-01	
18	2.500000e+01	9.000000e-01	0.000000e+00	9.000000e-01	
19	2.500000e+01	9.500000e-01	0.000000e+00	9.500000e-01	
20	2.500000e+01	1.000000e+00	0.000000e+00	1.000000e+00	
21	2.500000e+01	1.050000e+00	0.000000e+00	1.050000e+00	
22	2.500000e+01	1.100000e+00	0.000000e+00	1.100000e+00	

                              * conduction pmos *
                              DC transfer characteristic  Tue Mar  5 16:23:16  2024
--------------------------------------------------------------------------------
Index   temp-sweep      v(source)       v(body)         i(vd)           
--------------------------------------------------------------------------------
0	2.500000e+01	1.100000e+00	0.000000e+00	3.711063e-04	
1	2.500000e+01	1.100000e+00	0.000000e+00	3.596207e-04	
2	2.500000e+01	1.100000e+00	0.000000e+00	3.473516e-04	
3	2.500000e+01	1.100000e+00	0.000000e+00	3.342607e-04	
4	2.500000e+01	1.100000e+00	0.000000e+00	3.203062e-04	
5	2.500000e+01	1.100000e+00	0.000000e+00	3.054419e-04	
6	2.500000e+01	1.100000e+00	0.000000e+00	2.896165e-04	
7	2.500000e+01	1.100000e+00	0.000000e+00	2.727721e-04	
8	2.500000e+01	1.100000e+00	0.000000e+00	2.548434e-04	
9	2.500000e+01	1.100000e+00	0.000000e+00	2.357573e-04	
10	2.500000e+01	1.100000e+00	0.000000e+00	2.154350e-04	
11	2.500000e+01	1.100000e+00	0.000000e+00	1.938021e-04	
12	2.500000e+01	1.100000e+00	0.000000e+00	1.708144e-04	
13	2.500000e+01	1.100000e+00	0.000000e+00	1.465143e-04	
14	2.500000e+01	1.100000e+00	0.000000e+00	1.211376e-04	
15	2.500000e+01	1.100000e+00	0.000000e+00	9.528010e-05	
16	2.500000e+01	1.100000e+00	0.000000e+00	7.008040e-05	
17	2.500000e+01	1.100000e+00	0.000000e+00	4.724953e-05	
18	2.500000e+01	1.100000e+00	0.000000e+00	2.867095e-05	
19	2.500000e+01	1.100000e+00	0.000000e+00	1.552758e-05	
20	2.500000e+01	1.100000e+00	0.000000e+00	7.587696e-06	
21	2.500000e+01	1.100000e+00	0.000000e+00	3.454317e-06	
22	2.500000e+01	1.100000e+00	0.000000e+00	1.527061e-06	

                              * conduction pmos *
                              DC transfer characteristic  Tue Mar  5 16:23:16  2024
--------------------------------------------------------------------------------
Index   temp-sweep      i(vg)           i(vs)           i(vb)           
--------------------------------------------------------------------------------
0	2.500000e+01	1.125536e-07	-4.84683e-03	4.475616e-03	
1	2.500000e+01	9.257583e-08	-4.83533e-03	4.475619e-03	
2	2.500000e+01	7.683095e-08	-4.82305e-03	4.475620e-03	
3	2.500000e+01	6.388199e-08	-4.80995e-03	4.475621e-03	
4	2.500000e+01	5.288739e-08	-4.79598e-03	4.475621e-03	
5	2.500000e+01	4.338002e-08	-4.78111e-03	4.475621e-03	
6	2.500000e+01	3.508771e-08	-4.76527e-03	4.475621e-03	
7	2.500000e+01	2.782876e-08	-4.74842e-03	4.475621e-03	
8	2.500000e+01	2.146218e-08	-4.73049e-03	4.475621e-03	
9	2.500000e+01	1.586666e-08	-4.71139e-03	4.475621e-03	
10	2.500000e+01	1.093206e-08	-4.69107e-03	4.475621e-03	
11	2.500000e+01	6.555953e-09	-4.66943e-03	4.475621e-03	
12	2.500000e+01	2.641985e-09	-4.64644e-03	4.475621e-03	
13	2.500000e+01	-9.01277e-10	-4.62214e-03	4.475627e-03	
14	2.500000e+01	-4.16123e-09	-4.59675e-03	4.475621e-03	
15	2.500000e+01	-7.22131e-09	-4.57089e-03	4.475621e-03	
16	2.500000e+01	-1.01554e-08	-4.54569e-03	4.475621e-03	
17	2.500000e+01	-1.30059e-08	-4.52286e-03	4.475621e-03	
18	2.500000e+01	-1.58203e-08	-4.50428e-03	4.475621e-03	
19	2.500000e+01	-1.88263e-08	-4.49114e-03	4.475627e-03	
20	2.500000e+01	-2.24546e-08	-4.48319e-03	4.475621e-03	
21	2.500000e+01	-2.86093e-08	-4.47905e-03	4.475623e-03	
22	2.500000e+01	-4.67575e-08	-4.47712e-03	4.475638e-03	
