******
** ngspice-36 : Circuit level simulation program
** The U. C. Berkeley CAD Group
** Copyright 1985-1994, Regents of the University of California.
** Copyright 2001-2020, The ngspice team.
** Please get your ngspice manual from http://ngspice.sourceforge.net/docs.html
** Please file your bug-reports at http://ngspice.sourceforge.net/bugrep.html
** Creation Date: Sat Jan  1 18:54:42 UTC 2022
******

No compatibility mode selected!


Circuit: * conduction pmos *

Doing analysis at TEMP = 27.000000 and TNOM = 27.000000


No. of Data Rows : 23
                              * conduction pmos *
                              DC transfer characteristic  Tue Mar  5 16:23:02  2024
--------------------------------------------------------------------------------
Index   temp-sweep      abs(v(alim))    v(drain)        v(gate)         
--------------------------------------------------------------------------------
0	2.500000e+01	0.000000e+00	0.000000e+00	0.000000e+00	
1	2.500000e+01	5.000000e-02	0.000000e+00	5.000000e-02	
2	2.500000e+01	1.000000e-01	0.000000e+00	1.000000e-01	
3	2.500000e+01	1.500000e-01	0.000000e+00	1.500000e-01	
4	2.500000e+01	2.000000e-01	0.000000e+00	2.000000e-01	
5	2.500000e+01	2.500000e-01	0.000000e+00	2.500000e-01	
6	2.500000e+01	3.000000e-01	0.000000e+00	3.000000e-01	
7	2.500000e+01	3.500000e-01	0.000000e+00	3.500000e-01	
8	2.500000e+01	4.000000e-01	0.000000e+00	4.000000e-01	
9	2.500000e+01	4.500000e-01	0.000000e+00	4.500000e-01	
10	2.500000e+01	5.000000e-01	0.000000e+00	5.000000e-01	
11	2.500000e+01	5.500000e-01	0.000000e+00	5.500000e-01	
12	2.500000e+01	6.000000e-01	0.000000e+00	6.000000e-01	
13	2.500000e+01	6.500000e-01	0.000000e+00	6.500000e-01	
14	2.500000e+01	7.000000e-01	0.000000e+00	7.000000e-01	
15	2.500000e+01	7.500000e-01	0.000000e+00	7.500000e-01	
16	2.500000e+01	8.000000e-01	0.000000e+00	8.000000e-01	
17	2.500000e+01	8.500000e-01	0.000000e+00	8.500000e-01	
18	2.500000e+01	9.000000e-01	0.000000e+00	9.000000e-01	
19	2.500000e+01	9.500000e-01	0.000000e+00	9.500000e-01	
20	2.500000e+01	1.000000e+00	0.000000e+00	1.000000e+00	
21	2.500000e+01	1.050000e+00	0.000000e+00	1.050000e+00	
22	2.500000e+01	1.100000e+00	0.000000e+00	1.100000e+00	

                              * conduction pmos *
                              DC transfer characteristic  Tue Mar  5 16:23:02  2024
--------------------------------------------------------------------------------
Index   temp-sweep      v(source)       v(body)         i(vd)           
--------------------------------------------------------------------------------
0	2.500000e+01	1.100000e+00	0.000000e+00	1.325261e-04	
1	2.500000e+01	1.100000e+00	0.000000e+00	1.284248e-04	
2	2.500000e+01	1.100000e+00	0.000000e+00	1.240438e-04	
3	2.500000e+01	1.100000e+00	0.000000e+00	1.193692e-04	
4	2.500000e+01	1.100000e+00	0.000000e+00	1.143862e-04	
5	2.500000e+01	1.100000e+00	0.000000e+00	1.090782e-04	
6	2.500000e+01	1.100000e+00	0.000000e+00	1.034267e-04	
7	2.500000e+01	1.100000e+00	0.000000e+00	9.741120e-05	
8	2.500000e+01	1.100000e+00	0.000000e+00	9.100818e-05	
9	2.500000e+01	1.100000e+00	0.000000e+00	8.419142e-05	
10	2.500000e+01	1.100000e+00	0.000000e+00	7.693270e-05	
11	2.500000e+01	1.100000e+00	0.000000e+00	6.920538e-05	
12	2.500000e+01	1.100000e+00	0.000000e+00	6.099363e-05	
13	2.500000e+01	1.100000e+00	0.000000e+00	5.231272e-05	
14	2.500000e+01	1.100000e+00	0.000000e+00	4.324718e-05	
15	2.500000e+01	1.100000e+00	0.000000e+00	3.401056e-05	
16	2.500000e+01	1.100000e+00	0.000000e+00	2.501050e-05	
17	2.500000e+01	1.100000e+00	0.000000e+00	1.685884e-05	
18	2.500000e+01	1.100000e+00	0.000000e+00	1.022795e-05	
19	2.500000e+01	1.100000e+00	0.000000e+00	5.538762e-06	
20	2.500000e+01	1.100000e+00	0.000000e+00	2.706806e-06	
21	2.500000e+01	1.100000e+00	0.000000e+00	1.232617e-06	
22	2.500000e+01	1.100000e+00	0.000000e+00	5.451260e-07	

                              * conduction pmos *
                              DC transfer characteristic  Tue Mar  5 16:23:02  2024
--------------------------------------------------------------------------------
Index   temp-sweep      i(vg)           i(vs)           i(vb)           
--------------------------------------------------------------------------------
0	2.500000e+01	4.019641e-08	-4.12799e-03	3.995429e-03	
1	2.500000e+01	3.306239e-08	-4.12389e-03	3.995430e-03	
2	2.500000e+01	2.743963e-08	-4.11950e-03	3.995430e-03	
3	2.500000e+01	2.281515e-08	-4.11482e-03	3.995430e-03	
4	2.500000e+01	1.888852e-08	-4.10984e-03	3.995430e-03	
5	2.500000e+01	1.549300e-08	-4.10452e-03	3.995430e-03	
6	2.500000e+01	1.253141e-08	-4.09887e-03	3.995430e-03	
7	2.500000e+01	9.938885e-09	-4.09285e-03	3.995430e-03	
8	2.500000e+01	7.665069e-09	-4.08645e-03	3.995430e-03	
9	2.500000e+01	5.666638e-09	-4.07963e-03	3.995430e-03	
10	2.500000e+01	3.904257e-09	-4.07237e-03	3.995430e-03	
11	2.500000e+01	2.341346e-09	-4.06464e-03	3.995430e-03	
12	2.500000e+01	9.434920e-10	-4.05642e-03	3.995430e-03	
13	2.500000e+01	-3.21956e-10	-4.04774e-03	3.995430e-03	
14	2.500000e+01	-1.48622e-09	-4.03868e-03	3.995430e-03	
15	2.500000e+01	-2.57908e-09	-4.02944e-03	3.995430e-03	
16	2.500000e+01	-3.62696e-09	-4.02044e-03	3.995430e-03	
17	2.500000e+01	-4.64497e-09	-4.01228e-03	3.995430e-03	
18	2.500000e+01	-5.65013e-09	-4.00565e-03	3.995430e-03	
19	2.500000e+01	-6.72378e-09	-4.00096e-03	3.995430e-03	
20	2.500000e+01	-8.02014e-09	-3.99813e-03	3.995430e-03	
21	2.500000e+01	-1.02222e-08	-3.99665e-03	3.995431e-03	
22	2.500000e+01	-1.67217e-08	-3.99596e-03	3.995434e-03	
