******
** ngspice-36 : Circuit level simulation program
** The U. C. Berkeley CAD Group
** Copyright 1985-1994, Regents of the University of California.
** Copyright 2001-2020, The ngspice team.
** Please get your ngspice manual from http://ngspice.sourceforge.net/docs.html
** Please file your bug-reports at http://ngspice.sourceforge.net/bugrep.html
** Creation Date: Sat Jan  1 18:54:42 UTC 2022
******

No compatibility mode selected!


Circuit: * conduction pmos *

Doing analysis at TEMP = 27.000000 and TNOM = 27.000000


No. of Data Rows : 23
                              * conduction pmos *
                              DC transfer characteristic  Tue Mar  5 16:22:56  2024
--------------------------------------------------------------------------------
Index   temp-sweep      abs(v(alim))    v(drain)        v(gate)         
--------------------------------------------------------------------------------
0	2.500000e+01	0.000000e+00	0.000000e+00	0.000000e+00	
1	2.500000e+01	5.000000e-02	0.000000e+00	5.000000e-02	
2	2.500000e+01	1.000000e-01	0.000000e+00	1.000000e-01	
3	2.500000e+01	1.500000e-01	0.000000e+00	1.500000e-01	
4	2.500000e+01	2.000000e-01	0.000000e+00	2.000000e-01	
5	2.500000e+01	2.500000e-01	0.000000e+00	2.500000e-01	
6	2.500000e+01	3.000000e-01	0.000000e+00	3.000000e-01	
7	2.500000e+01	3.500000e-01	0.000000e+00	3.500000e-01	
8	2.500000e+01	4.000000e-01	0.000000e+00	4.000000e-01	
9	2.500000e+01	4.500000e-01	0.000000e+00	4.500000e-01	
10	2.500000e+01	5.000000e-01	0.000000e+00	5.000000e-01	
11	2.500000e+01	5.500000e-01	0.000000e+00	5.500000e-01	
12	2.500000e+01	6.000000e-01	0.000000e+00	6.000000e-01	
13	2.500000e+01	6.500000e-01	0.000000e+00	6.500000e-01	
14	2.500000e+01	7.000000e-01	0.000000e+00	7.000000e-01	
15	2.500000e+01	7.500000e-01	0.000000e+00	7.500000e-01	
16	2.500000e+01	8.000000e-01	0.000000e+00	8.000000e-01	
17	2.500000e+01	8.500000e-01	0.000000e+00	8.500000e-01	
18	2.500000e+01	9.000000e-01	0.000000e+00	9.000000e-01	
19	2.500000e+01	9.500000e-01	0.000000e+00	9.500000e-01	
20	2.500000e+01	1.000000e+00	0.000000e+00	1.000000e+00	
21	2.500000e+01	1.050000e+00	0.000000e+00	1.050000e+00	
22	2.500000e+01	1.100000e+00	0.000000e+00	1.100000e+00	

                              * conduction pmos *
                              DC transfer characteristic  Tue Mar  5 16:22:56  2024
--------------------------------------------------------------------------------
Index   temp-sweep      v(source)       v(body)         i(vd)           
--------------------------------------------------------------------------------
0	2.500000e+01	1.100000e+00	0.000000e+00	8.481433e-05	
1	2.500000e+01	1.100000e+00	0.000000e+00	8.218970e-05	
2	2.500000e+01	1.100000e+00	0.000000e+00	7.938597e-05	
3	2.500000e+01	1.100000e+00	0.000000e+00	7.639440e-05	
4	2.500000e+01	1.100000e+00	0.000000e+00	7.320541e-05	
5	2.500000e+01	1.100000e+00	0.000000e+00	6.980839e-05	
6	2.500000e+01	1.100000e+00	0.000000e+00	6.619157e-05	
7	2.500000e+01	1.100000e+00	0.000000e+00	6.234170e-05	
8	2.500000e+01	1.100000e+00	0.000000e+00	5.824378e-05	
9	2.500000e+01	1.100000e+00	0.000000e+00	5.388100e-05	
10	2.500000e+01	1.100000e+00	0.000000e+00	4.923527e-05	
11	2.500000e+01	1.100000e+00	0.000000e+00	4.428953e-05	
12	2.500000e+01	1.100000e+00	0.000000e+00	3.903365e-05	
13	2.500000e+01	1.100000e+00	0.000000e+00	3.347740e-05	
14	2.500000e+01	1.100000e+00	0.000000e+00	2.767498e-05	
15	2.500000e+01	1.100000e+00	0.000000e+00	2.176319e-05	
16	2.500000e+01	1.100000e+00	0.000000e+00	1.600312e-05	
17	2.500000e+01	1.100000e+00	0.000000e+00	1.078650e-05	
18	2.500000e+01	1.100000e+00	0.000000e+00	6.543587e-06	
19	2.500000e+01	1.100000e+00	0.000000e+00	3.543467e-06	
20	2.500000e+01	1.100000e+00	0.000000e+00	1.731748e-06	
21	2.500000e+01	1.100000e+00	0.000000e+00	7.886642e-07	
22	2.500000e+01	1.100000e+00	0.000000e+00	3.488306e-07	

                              * conduction pmos *
                              DC transfer characteristic  Tue Mar  5 16:22:56  2024
--------------------------------------------------------------------------------
Index   temp-sweep      i(vg)           i(vs)           i(vb)           
--------------------------------------------------------------------------------
0	2.500000e+01	2.572545e-08	-3.92712e-03	3.842280e-03	
1	2.500000e+01	2.115985e-08	-3.92449e-03	3.842281e-03	
2	2.500000e+01	1.756136e-08	-3.92168e-03	3.842281e-03	
3	2.500000e+01	1.460172e-08	-3.91869e-03	3.842281e-03	
4	2.500000e+01	1.208869e-08	-3.91550e-03	3.842281e-03	
5	2.500000e+01	9.915545e-09	-3.91210e-03	3.842281e-03	
6	2.500000e+01	8.020121e-09	-3.90848e-03	3.842281e-03	
7	2.500000e+01	6.360894e-09	-3.90463e-03	3.842281e-03	
8	2.500000e+01	4.905646e-09	-3.90053e-03	3.842281e-03	
9	2.500000e+01	3.626644e-09	-3.89617e-03	3.842281e-03	
10	2.500000e+01	2.498713e-09	-3.89152e-03	3.842281e-03	
11	2.500000e+01	1.498448e-09	-3.88657e-03	3.842281e-03	
12	2.500000e+01	6.038210e-10	-3.88132e-03	3.842281e-03	
13	2.500000e+01	-2.06066e-10	-3.87576e-03	3.842281e-03	
14	2.500000e+01	-9.51190e-10	-3.86996e-03	3.842281e-03	
15	2.500000e+01	-1.65062e-09	-3.86404e-03	3.842281e-03	
16	2.500000e+01	-2.32126e-09	-3.85828e-03	3.842281e-03	
17	2.500000e+01	-2.97278e-09	-3.85306e-03	3.842281e-03	
18	2.500000e+01	-3.61609e-09	-3.84882e-03	3.842281e-03	
19	2.500000e+01	-4.30323e-09	-3.84582e-03	3.842281e-03	
20	2.500000e+01	-5.13302e-09	-3.84401e-03	3.842281e-03	
21	2.500000e+01	-6.54311e-09	-3.84306e-03	3.842282e-03	
22	2.500000e+01	-1.07064e-08	-3.84262e-03	3.842284e-03	
