******
** ngspice-36 : Circuit level simulation program
** The U. C. Berkeley CAD Group
** Copyright 1985-1994, Regents of the University of California.
** Copyright 2001-2020, The ngspice team.
** Please get your ngspice manual from http://ngspice.sourceforge.net/docs.html
** Please file your bug-reports at http://ngspice.sourceforge.net/bugrep.html
** Creation Date: Sat Jan  1 18:54:42 UTC 2022
******

No compatibility mode selected!


Circuit: * conduction pmos *

Doing analysis at TEMP = 27.000000 and TNOM = 27.000000


No. of Data Rows : 23
                              * conduction pmos *
                              DC transfer characteristic  Tue Mar  5 16:22:51  2024
--------------------------------------------------------------------------------
Index   temp-sweep      abs(v(alim))    v(drain)        v(gate)         
--------------------------------------------------------------------------------
0	2.500000e+01	0.000000e+00	0.000000e+00	0.000000e+00	
1	2.500000e+01	5.000000e-02	0.000000e+00	5.000000e-02	
2	2.500000e+01	1.000000e-01	0.000000e+00	1.000000e-01	
3	2.500000e+01	1.500000e-01	0.000000e+00	1.500000e-01	
4	2.500000e+01	2.000000e-01	0.000000e+00	2.000000e-01	
5	2.500000e+01	2.500000e-01	0.000000e+00	2.500000e-01	
6	2.500000e+01	3.000000e-01	0.000000e+00	3.000000e-01	
7	2.500000e+01	3.500000e-01	0.000000e+00	3.500000e-01	
8	2.500000e+01	4.000000e-01	0.000000e+00	4.000000e-01	
9	2.500000e+01	4.500000e-01	0.000000e+00	4.500000e-01	
10	2.500000e+01	5.000000e-01	0.000000e+00	5.000000e-01	
11	2.500000e+01	5.500000e-01	0.000000e+00	5.500000e-01	
12	2.500000e+01	6.000000e-01	0.000000e+00	6.000000e-01	
13	2.500000e+01	6.500000e-01	0.000000e+00	6.500000e-01	
14	2.500000e+01	7.000000e-01	0.000000e+00	7.000000e-01	
15	2.500000e+01	7.500000e-01	0.000000e+00	7.500000e-01	
16	2.500000e+01	8.000000e-01	0.000000e+00	8.000000e-01	
17	2.500000e+01	8.500000e-01	0.000000e+00	8.500000e-01	
18	2.500000e+01	9.000000e-01	0.000000e+00	9.000000e-01	
19	2.500000e+01	9.500000e-01	0.000000e+00	9.500000e-01	
20	2.500000e+01	1.000000e+00	0.000000e+00	1.000000e+00	
21	2.500000e+01	1.050000e+00	0.000000e+00	1.050000e+00	
22	2.500000e+01	1.100000e+00	0.000000e+00	1.100000e+00	

                              * conduction pmos *
                              DC transfer characteristic  Tue Mar  5 16:22:51  2024
--------------------------------------------------------------------------------
Index   temp-sweep      v(source)       v(body)         i(vd)           
--------------------------------------------------------------------------------
0	2.500000e+01	1.100000e+00	0.000000e+00	3.710497e-05	
1	2.500000e+01	1.100000e+00	0.000000e+00	3.595678e-05	
2	2.500000e+01	1.100000e+00	0.000000e+00	3.473023e-05	
3	2.500000e+01	1.100000e+00	0.000000e+00	3.342150e-05	
4	2.500000e+01	1.100000e+00	0.000000e+00	3.202640e-05	
5	2.500000e+01	1.100000e+00	0.000000e+00	3.054027e-05	
6	2.500000e+01	1.100000e+00	0.000000e+00	2.895797e-05	
7	2.500000e+01	1.100000e+00	0.000000e+00	2.727369e-05	
8	2.500000e+01	1.100000e+00	0.000000e+00	2.548085e-05	
9	2.500000e+01	1.100000e+00	0.000000e+00	2.357210e-05	
10	2.500000e+01	1.100000e+00	0.000000e+00	2.153952e-05	
11	2.500000e+01	1.100000e+00	0.000000e+00	1.937562e-05	
12	2.500000e+01	1.100000e+00	0.000000e+00	1.707597e-05	
13	2.500000e+01	1.100000e+00	0.000000e+00	1.464485e-05	
14	2.500000e+01	1.100000e+00	0.000000e+00	1.210603e-05	
15	2.500000e+01	1.100000e+00	0.000000e+00	9.519430e-06	
16	2.500000e+01	1.100000e+00	0.000000e+00	6.999382e-06	
17	2.500000e+01	1.100000e+00	0.000000e+00	4.717353e-06	
18	2.500000e+01	1.100000e+00	0.000000e+00	2.861551e-06	
19	2.500000e+01	1.100000e+00	0.000000e+00	1.549528e-06	
20	2.500000e+01	1.100000e+00	0.000000e+00	7.573044e-07	
21	2.500000e+01	1.100000e+00	0.000000e+00	3.449245e-07	
22	2.500000e+01	1.100000e+00	0.000000e+00	1.525858e-07	

                              * conduction pmos *
                              DC transfer characteristic  Tue Mar  5 16:22:51  2024
--------------------------------------------------------------------------------
Index   temp-sweep      i(vg)           i(vs)           i(vb)           
--------------------------------------------------------------------------------
0	2.500000e+01	1.125474e-08	-3.68297e-03	3.645854e-03	
1	2.500000e+01	9.257391e-09	-3.68182e-03	3.645854e-03	
2	2.500000e+01	7.683098e-09	-3.68059e-03	3.645854e-03	
3	2.500000e+01	6.388270e-09	-3.67928e-03	3.645855e-03	
4	2.500000e+01	5.288818e-09	-3.67789e-03	3.645855e-03	
5	2.500000e+01	4.338064e-09	-3.67640e-03	3.645855e-03	
6	2.500000e+01	3.508812e-09	-3.67482e-03	3.645855e-03	
7	2.500000e+01	2.782897e-09	-3.67313e-03	3.645855e-03	
8	2.500000e+01	2.146219e-09	-3.67134e-03	3.645855e-03	
9	2.500000e+01	1.586653e-09	-3.66943e-03	3.645855e-03	
10	2.500000e+01	1.093182e-09	-3.66740e-03	3.645855e-03	
11	2.500000e+01	6.555609e-10	-3.66523e-03	3.645855e-03	
12	2.500000e+01	2.641620e-10	-3.66293e-03	3.645855e-03	
13	2.500000e+01	-9.01608e-11	-3.66050e-03	3.645855e-03	
14	2.500000e+01	-4.16156e-10	-3.65796e-03	3.645855e-03	
15	2.500000e+01	-7.22153e-10	-3.65537e-03	3.645855e-03	
16	2.500000e+01	-1.01555e-09	-3.65285e-03	3.645855e-03	
17	2.500000e+01	-1.30060e-09	-3.65057e-03	3.645855e-03	
18	2.500000e+01	-1.58203e-09	-3.64871e-03	3.645855e-03	
19	2.500000e+01	-1.88268e-09	-3.64740e-03	3.645855e-03	
20	2.500000e+01	-2.24576e-09	-3.64661e-03	3.645855e-03	
21	2.500000e+01	-2.86311e-09	-3.64620e-03	3.645855e-03	
22	2.500000e+01	-4.68650e-09	-3.64600e-03	3.645856e-03	
