******
** ngspice-36 : Circuit level simulation program
** The U. C. Berkeley CAD Group
** Copyright 1985-1994, Regents of the University of California.
** Copyright 2001-2020, The ngspice team.
** Please get your ngspice manual from http://ngspice.sourceforge.net/docs.html
** Please file your bug-reports at http://ngspice.sourceforge.net/bugrep.html
** Creation Date: Sat Jan  1 18:54:42 UTC 2022
******

No compatibility mode selected!


Circuit: * conduction pmos *

Doing analysis at TEMP = 27.000000 and TNOM = 27.000000


No. of Data Rows : 23
                              * conduction pmos *
                              DC transfer characteristic  Tue Mar  5 16:23:11  2024
--------------------------------------------------------------------------------
Index   temp-sweep      abs(v(alim))    v(drain)        v(gate)         
--------------------------------------------------------------------------------
0	2.500000e+01	0.000000e+00	0.000000e+00	0.000000e+00	
1	2.500000e+01	5.000000e-02	0.000000e+00	5.000000e-02	
2	2.500000e+01	1.000000e-01	0.000000e+00	1.000000e-01	
3	2.500000e+01	1.500000e-01	0.000000e+00	1.500000e-01	
4	2.500000e+01	2.000000e-01	0.000000e+00	2.000000e-01	
5	2.500000e+01	2.500000e-01	0.000000e+00	2.500000e-01	
6	2.500000e+01	3.000000e-01	0.000000e+00	3.000000e-01	
7	2.500000e+01	3.500000e-01	0.000000e+00	3.500000e-01	
8	2.500000e+01	4.000000e-01	0.000000e+00	4.000000e-01	
9	2.500000e+01	4.500000e-01	0.000000e+00	4.500000e-01	
10	2.500000e+01	5.000000e-01	0.000000e+00	5.000000e-01	
11	2.500000e+01	5.500000e-01	0.000000e+00	5.500000e-01	
12	2.500000e+01	6.000000e-01	0.000000e+00	6.000000e-01	
13	2.500000e+01	6.500000e-01	0.000000e+00	6.500000e-01	
14	2.500000e+01	7.000000e-01	0.000000e+00	7.000000e-01	
15	2.500000e+01	7.500000e-01	0.000000e+00	7.500000e-01	
16	2.500000e+01	8.000000e-01	0.000000e+00	8.000000e-01	
17	2.500000e+01	8.500000e-01	0.000000e+00	8.500000e-01	
18	2.500000e+01	9.000000e-01	0.000000e+00	9.000000e-01	
19	2.500000e+01	9.500000e-01	0.000000e+00	9.500000e-01	
20	2.500000e+01	1.000000e+00	0.000000e+00	1.000000e+00	
21	2.500000e+01	1.050000e+00	0.000000e+00	1.050000e+00	
22	2.500000e+01	1.100000e+00	0.000000e+00	1.100000e+00	

                              * conduction pmos *
                              DC transfer characteristic  Tue Mar  5 16:23:11  2024
--------------------------------------------------------------------------------
Index   temp-sweep      v(source)       v(body)         i(vd)           
--------------------------------------------------------------------------------
0	2.500000e+01	1.100000e+00	0.000000e+00	2.756708e-04	
1	2.500000e+01	1.100000e+00	0.000000e+00	2.671392e-04	
2	2.500000e+01	1.100000e+00	0.000000e+00	2.580255e-04	
3	2.500000e+01	1.100000e+00	0.000000e+00	2.483014e-04	
4	2.500000e+01	1.100000e+00	0.000000e+00	2.379357e-04	
5	2.500000e+01	1.100000e+00	0.000000e+00	2.268941e-04	
6	2.500000e+01	1.100000e+00	0.000000e+00	2.151384e-04	
7	2.500000e+01	1.100000e+00	0.000000e+00	2.026256e-04	
8	2.500000e+01	1.100000e+00	0.000000e+00	1.893073e-04	
9	2.500000e+01	1.100000e+00	0.000000e+00	1.751288e-04	
10	2.500000e+01	1.100000e+00	0.000000e+00	1.600317e-04	
11	2.500000e+01	1.100000e+00	0.000000e+00	1.439607e-04	
12	2.500000e+01	1.100000e+00	0.000000e+00	1.268828e-04	
13	2.500000e+01	1.100000e+00	0.000000e+00	1.088298e-04	
14	2.500000e+01	1.100000e+00	0.000000e+00	8.997684e-05	
15	2.500000e+01	1.100000e+00	0.000000e+00	7.076715e-05	
16	2.500000e+01	1.100000e+00	0.000000e+00	5.204726e-05	
17	2.500000e+01	1.100000e+00	0.000000e+00	3.508870e-05	
18	2.500000e+01	1.100000e+00	0.000000e+00	2.129043e-05	
19	2.500000e+01	1.100000e+00	0.000000e+00	1.153012e-05	
20	2.500000e+01	1.100000e+00	0.000000e+00	5.634462e-06	
21	2.500000e+01	1.100000e+00	0.000000e+00	2.565333e-06	
22	2.500000e+01	1.100000e+00	0.000000e+00	1.134215e-06	

                              * conduction pmos *
                              DC transfer characteristic  Tue Mar  5 16:23:11  2024
--------------------------------------------------------------------------------
Index   temp-sweep      i(vg)           i(vs)           i(vb)           
--------------------------------------------------------------------------------
0	2.500000e+01	8.361035e-08	-4.59605e-03	4.320297e-03	
1	2.500000e+01	6.877033e-08	-4.58751e-03	4.320300e-03	
2	2.500000e+01	5.707442e-08	-4.57838e-03	4.320301e-03	
3	2.500000e+01	4.745529e-08	-4.56865e-03	4.320301e-03	
4	2.500000e+01	3.928789e-08	-4.55828e-03	4.320301e-03	
5	2.500000e+01	3.222525e-08	-4.54723e-03	4.320301e-03	
6	2.500000e+01	2.606521e-08	-4.53547e-03	4.320301e-03	
7	2.500000e+01	2.067282e-08	-4.52295e-03	4.320301e-03	
8	2.500000e+01	1.594334e-08	-4.50962e-03	4.320301e-03	
9	2.500000e+01	1.178664e-08	-4.49544e-03	4.320301e-03	
10	2.500000e+01	8.120922e-09	-4.48034e-03	4.320301e-03	
11	2.500000e+01	4.870091e-09	-4.46427e-03	4.320301e-03	
12	2.500000e+01	1.962566e-09	-4.44719e-03	4.320301e-03	
13	2.500000e+01	-6.69570e-10	-4.42913e-03	4.320302e-03	
14	2.500000e+01	-3.09124e-09	-4.41027e-03	4.320301e-03	
15	2.500000e+01	-5.36443e-09	-4.39106e-03	4.320301e-03	
16	2.500000e+01	-7.54403e-09	-4.37234e-03	4.320301e-03	
17	2.500000e+01	-9.66152e-09	-4.35538e-03	4.320301e-03	
18	2.500000e+01	-1.17522e-08	-4.34158e-03	4.320301e-03	
19	2.500000e+01	-1.39853e-08	-4.33182e-03	4.320301e-03	
20	2.500000e+01	-1.66810e-08	-4.32592e-03	4.320301e-03	
21	2.500000e+01	-2.12558e-08	-4.32285e-03	4.320302e-03	
22	2.500000e+01	-3.47496e-08	-4.32141e-03	4.320310e-03	
