******
** ngspice-36 : Circuit level simulation program
** The U. C. Berkeley CAD Group
** Copyright 1985-1994, Regents of the University of California.
** Copyright 2001-2020, The ngspice team.
** Please get your ngspice manual from http://ngspice.sourceforge.net/docs.html
** Please file your bug-reports at http://ngspice.sourceforge.net/bugrep.html
** Creation Date: Sat Jan  1 18:54:42 UTC 2022
******

No compatibility mode selected!


Circuit: * conduction pmos *

Doing analysis at TEMP = 27.000000 and TNOM = 27.000000


No. of Data Rows : 23
                              * conduction pmos *
                              DC transfer characteristic  Tue Mar  5 16:16:34  2024
--------------------------------------------------------------------------------
Index   temp-sweep      abs(v(alim))    v(drain)        v(gate)         
--------------------------------------------------------------------------------
0	2.500000e+01	0.000000e+00	1.100000e+00	0.000000e+00	
1	2.500000e+01	5.000000e-02	1.100000e+00	5.000000e-02	
2	2.500000e+01	1.000000e-01	1.100000e+00	1.000000e-01	
3	2.500000e+01	1.500000e-01	1.100000e+00	1.500000e-01	
4	2.500000e+01	2.000000e-01	1.100000e+00	2.000000e-01	
5	2.500000e+01	2.500000e-01	1.100000e+00	2.500000e-01	
6	2.500000e+01	3.000000e-01	1.100000e+00	3.000000e-01	
7	2.500000e+01	3.500000e-01	1.100000e+00	3.500000e-01	
8	2.500000e+01	4.000000e-01	1.100000e+00	4.000000e-01	
9	2.500000e+01	4.500000e-01	1.100000e+00	4.500000e-01	
10	2.500000e+01	5.000000e-01	1.100000e+00	5.000000e-01	
11	2.500000e+01	5.500000e-01	1.100000e+00	5.500000e-01	
12	2.500000e+01	6.000000e-01	1.100000e+00	6.000000e-01	
13	2.500000e+01	6.500000e-01	1.100000e+00	6.500000e-01	
14	2.500000e+01	7.000000e-01	1.100000e+00	7.000000e-01	
15	2.500000e+01	7.500000e-01	1.100000e+00	7.500000e-01	
16	2.500000e+01	8.000000e-01	1.100000e+00	8.000000e-01	
17	2.500000e+01	8.500000e-01	1.100000e+00	8.500000e-01	
18	2.500000e+01	9.000000e-01	1.100000e+00	9.000000e-01	
19	2.500000e+01	9.500000e-01	1.100000e+00	9.500000e-01	
20	2.500000e+01	1.000000e+00	1.100000e+00	1.000000e+00	
21	2.500000e+01	1.050000e+00	1.100000e+00	1.050000e+00	
22	2.500000e+01	1.100000e+00	1.100000e+00	1.100000e+00	

                              * conduction pmos *
                              DC transfer characteristic  Tue Mar  5 16:16:34  2024
--------------------------------------------------------------------------------
Index   temp-sweep      v(source)       v(body)         i(vd)           
--------------------------------------------------------------------------------
0	2.500000e+01	1.100000e+00	0.000000e+00	-3.43342e-03	
1	2.500000e+01	1.100000e+00	0.000000e+00	-3.43341e-03	
2	2.500000e+01	1.100000e+00	0.000000e+00	-3.43341e-03	
3	2.500000e+01	1.100000e+00	0.000000e+00	-3.43341e-03	
4	2.500000e+01	1.100000e+00	0.000000e+00	-3.43340e-03	
5	2.500000e+01	1.100000e+00	0.000000e+00	-3.43340e-03	
6	2.500000e+01	1.100000e+00	0.000000e+00	-3.43340e-03	
7	2.500000e+01	1.100000e+00	0.000000e+00	-3.43340e-03	
8	2.500000e+01	1.100000e+00	0.000000e+00	-3.43340e-03	
9	2.500000e+01	1.100000e+00	0.000000e+00	-3.43339e-03	
10	2.500000e+01	1.100000e+00	0.000000e+00	-3.43339e-03	
11	2.500000e+01	1.100000e+00	0.000000e+00	-3.43339e-03	
12	2.500000e+01	1.100000e+00	0.000000e+00	-3.43339e-03	
13	2.500000e+01	1.100000e+00	0.000000e+00	-3.43339e-03	
14	2.500000e+01	1.100000e+00	0.000000e+00	-3.43339e-03	
15	2.500000e+01	1.100000e+00	0.000000e+00	-3.43339e-03	
16	2.500000e+01	1.100000e+00	0.000000e+00	-3.43339e-03	
17	2.500000e+01	1.100000e+00	0.000000e+00	-3.43339e-03	
18	2.500000e+01	1.100000e+00	0.000000e+00	-3.43339e-03	
19	2.500000e+01	1.100000e+00	0.000000e+00	-3.43339e-03	
20	2.500000e+01	1.100000e+00	0.000000e+00	-3.43339e-03	
21	2.500000e+01	1.100000e+00	0.000000e+00	-3.43339e-03	
22	2.500000e+01	1.100000e+00	0.000000e+00	-3.43339e-03	

                              * conduction pmos *
                              DC transfer characteristic  Tue Mar  5 16:16:34  2024
--------------------------------------------------------------------------------
Index   temp-sweep      i(vg)           i(vs)           i(vb)           
--------------------------------------------------------------------------------
0	2.500000e+01	5.262477e-08	-3.43342e-03	6.866781e-03	
1	2.500000e+01	4.370870e-08	-3.43341e-03	6.866781e-03	
2	2.500000e+01	3.633464e-08	-3.43341e-03	6.866782e-03	
3	2.500000e+01	3.011598e-08	-3.43341e-03	6.866782e-03	
4	2.500000e+01	2.481943e-08	-3.43340e-03	6.866782e-03	
5	2.500000e+01	2.029565e-08	-3.43340e-03	6.866782e-03	
6	2.500000e+01	1.643784e-08	-3.43340e-03	6.866782e-03	
7	2.500000e+01	1.316137e-08	-3.43340e-03	6.866782e-03	
8	2.500000e+01	1.039470e-08	-3.43340e-03	6.866782e-03	
9	2.500000e+01	8.075490e-09	-3.43339e-03	6.866782e-03	
10	2.500000e+01	6.148707e-09	-3.43339e-03	6.866782e-03	
11	2.500000e+01	4.565606e-09	-3.43339e-03	6.866782e-03	
12	2.500000e+01	3.282908e-09	-3.43339e-03	6.866782e-03	
13	2.500000e+01	2.261992e-09	-3.43339e-03	6.866782e-03	
14	2.500000e+01	1.468040e-09	-3.43339e-03	6.866782e-03	
15	2.500000e+01	8.695489e-10	-3.43339e-03	6.866782e-03	
16	2.500000e+01	4.401288e-10	-3.43339e-03	6.866782e-03	
17	2.500000e+01	1.668825e-10	-3.43339e-03	6.866782e-03	
18	2.500000e+01	3.886491e-11	-3.43339e-03	6.866782e-03	
19	2.500000e+01	-8.54428e-12	-3.43339e-03	6.866782e-03	
20	2.500000e+01	-1.09452e-10	-3.43339e-03	6.866782e-03	
21	2.500000e+01	-9.30515e-10	-3.43339e-03	6.866782e-03	
22	2.500000e+01	-5.77092e-09	-3.43339e-03	6.866784e-03	
