******
** ngspice-36 : Circuit level simulation program
** The U. C. Berkeley CAD Group
** Copyright 1985-1994, Regents of the University of California.
** Copyright 2001-2020, The ngspice team.
** Please get your ngspice manual from http://ngspice.sourceforge.net/docs.html
** Please file your bug-reports at http://ngspice.sourceforge.net/bugrep.html
** Creation Date: Sat Jan  1 18:54:42 UTC 2022
******

No compatibility mode selected!


Circuit: * conduction pmos *

Doing analysis at TEMP = 27.000000 and TNOM = 27.000000


No. of Data Rows : 23
                              * conduction pmos *
                              DC transfer characteristic  Tue Mar  5 16:16:26  2024
--------------------------------------------------------------------------------
Index   temp-sweep      abs(v(alim))    v(drain)        v(gate)         
--------------------------------------------------------------------------------
0	2.500000e+01	0.000000e+00	1.100000e+00	0.000000e+00	
1	2.500000e+01	5.000000e-02	1.100000e+00	5.000000e-02	
2	2.500000e+01	1.000000e-01	1.100000e+00	1.000000e-01	
3	2.500000e+01	1.500000e-01	1.100000e+00	1.500000e-01	
4	2.500000e+01	2.000000e-01	1.100000e+00	2.000000e-01	
5	2.500000e+01	2.500000e-01	1.100000e+00	2.500000e-01	
6	2.500000e+01	3.000000e-01	1.100000e+00	3.000000e-01	
7	2.500000e+01	3.500000e-01	1.100000e+00	3.500000e-01	
8	2.500000e+01	4.000000e-01	1.100000e+00	4.000000e-01	
9	2.500000e+01	4.500000e-01	1.100000e+00	4.500000e-01	
10	2.500000e+01	5.000000e-01	1.100000e+00	5.000000e-01	
11	2.500000e+01	5.500000e-01	1.100000e+00	5.500000e-01	
12	2.500000e+01	6.000000e-01	1.100000e+00	6.000000e-01	
13	2.500000e+01	6.500000e-01	1.100000e+00	6.500000e-01	
14	2.500000e+01	7.000000e-01	1.100000e+00	7.000000e-01	
15	2.500000e+01	7.500000e-01	1.100000e+00	7.500000e-01	
16	2.500000e+01	8.000000e-01	1.100000e+00	8.000000e-01	
17	2.500000e+01	8.500000e-01	1.100000e+00	8.500000e-01	
18	2.500000e+01	9.000000e-01	1.100000e+00	9.000000e-01	
19	2.500000e+01	9.500000e-01	1.100000e+00	9.500000e-01	
20	2.500000e+01	1.000000e+00	1.100000e+00	1.000000e+00	
21	2.500000e+01	1.050000e+00	1.100000e+00	1.050000e+00	
22	2.500000e+01	1.100000e+00	1.100000e+00	1.100000e+00	

                              * conduction pmos *
                              DC transfer characteristic  Tue Mar  5 16:16:26  2024
--------------------------------------------------------------------------------
Index   temp-sweep      v(source)       v(body)         i(vd)           
--------------------------------------------------------------------------------
0	2.500000e+01	1.100000e+00	0.000000e+00	-3.30510e-03	
1	2.500000e+01	1.100000e+00	0.000000e+00	-3.30509e-03	
2	2.500000e+01	1.100000e+00	0.000000e+00	-3.30509e-03	
3	2.500000e+01	1.100000e+00	0.000000e+00	-3.30509e-03	
4	2.500000e+01	1.100000e+00	0.000000e+00	-3.30509e-03	
5	2.500000e+01	1.100000e+00	0.000000e+00	-3.30509e-03	
6	2.500000e+01	1.100000e+00	0.000000e+00	-3.30508e-03	
7	2.500000e+01	1.100000e+00	0.000000e+00	-3.30508e-03	
8	2.500000e+01	1.100000e+00	0.000000e+00	-3.30508e-03	
9	2.500000e+01	1.100000e+00	0.000000e+00	-3.30508e-03	
10	2.500000e+01	1.100000e+00	0.000000e+00	-3.30508e-03	
11	2.500000e+01	1.100000e+00	0.000000e+00	-3.30508e-03	
12	2.500000e+01	1.100000e+00	0.000000e+00	-3.30508e-03	
13	2.500000e+01	1.100000e+00	0.000000e+00	-3.30508e-03	
14	2.500000e+01	1.100000e+00	0.000000e+00	-3.30508e-03	
15	2.500000e+01	1.100000e+00	0.000000e+00	-3.30508e-03	
16	2.500000e+01	1.100000e+00	0.000000e+00	-3.30508e-03	
17	2.500000e+01	1.100000e+00	0.000000e+00	-3.30508e-03	
18	2.500000e+01	1.100000e+00	0.000000e+00	-3.30508e-03	
19	2.500000e+01	1.100000e+00	0.000000e+00	-3.30508e-03	
20	2.500000e+01	1.100000e+00	0.000000e+00	-3.30508e-03	
21	2.500000e+01	1.100000e+00	0.000000e+00	-3.30508e-03	
22	2.500000e+01	1.100000e+00	0.000000e+00	-3.30508e-03	

                              * conduction pmos *
                              DC transfer characteristic  Tue Mar  5 16:16:26  2024
--------------------------------------------------------------------------------
Index   temp-sweep      i(vg)           i(vs)           i(vb)           
--------------------------------------------------------------------------------
0	2.500000e+01	3.367967e-08	-3.30510e-03	6.610158e-03	
1	2.500000e+01	2.797349e-08	-3.30509e-03	6.610158e-03	
2	2.500000e+01	2.325414e-08	-3.30509e-03	6.610158e-03	
3	2.500000e+01	1.927421e-08	-3.30509e-03	6.610158e-03	
4	2.500000e+01	1.588441e-08	-3.30509e-03	6.610158e-03	
5	2.500000e+01	1.298918e-08	-3.30509e-03	6.610158e-03	
6	2.500000e+01	1.052016e-08	-3.30508e-03	6.610158e-03	
7	2.500000e+01	8.423199e-09	-3.30508e-03	6.610158e-03	
8	2.500000e+01	6.652516e-09	-3.30508e-03	6.610158e-03	
9	2.500000e+01	5.168210e-09	-3.30508e-03	6.610158e-03	
10	2.500000e+01	3.935061e-09	-3.30508e-03	6.610158e-03	
11	2.500000e+01	2.921879e-09	-3.30508e-03	6.610158e-03	
12	2.500000e+01	2.100962e-09	-3.30508e-03	6.610158e-03	
13	2.500000e+01	1.447592e-09	-3.30508e-03	6.610158e-03	
14	2.500000e+01	9.394858e-10	-3.30508e-03	6.610158e-03	
15	2.500000e+01	5.564749e-10	-3.30508e-03	6.610158e-03	
16	2.500000e+01	2.816662e-10	-3.30508e-03	6.610158e-03	
17	2.500000e+01	1.067999e-10	-3.30508e-03	6.610158e-03	
18	2.500000e+01	2.486900e-11	-3.30508e-03	6.610158e-03	
19	2.500000e+01	-5.50671e-12	-3.30508e-03	6.610166e-03	
20	2.500000e+01	-7.03455e-11	-3.30508e-03	6.610166e-03	
21	2.500000e+01	-5.97630e-10	-3.30508e-03	6.610166e-03	
22	2.500000e+01	-3.70384e-09	-3.30508e-03	6.610167e-03	
