 v-sweep         abs(V(alim))    V(drain)        V(gate)         V(source)       V(body)         I(Vd)           I(Vg)           I(Vs)           I(Vb)          
 2.50000000e+01  0.00000000e+00  0.00000000e+00  0.00000000e+00  0.00000000e+00  0.00000000e+00 -4.28619975e-21  6.54600772e-20 -4.28619975e-21 -5.68876777e-20 
 2.50000000e+01  5.00000000e-02  0.00000000e+00  5.00000000e-02  0.00000000e+00  0.00000000e+00  1.65047104e-11 -3.30097824e-11  1.65047104e-11  3.59508934e-16 
 2.50000000e+01  1.00000000e-01  0.00000000e+00  1.00000000e-01  0.00000000e+00  0.00000000e+00  1.66132886e-11 -3.32273514e-11  1.66132886e-11  7.85823330e-16 
 2.50000000e+01  1.50000000e-01  0.00000000e+00  1.50000000e-01  0.00000000e+00  0.00000000e+00  5.45340003e-12 -1.09080800e-11  5.45340003e-12  1.29231837e-15 
 2.50000000e+01  2.00000000e-01  0.00000000e+00  2.00000000e-01  0.00000000e+00  0.00000000e+00  2.12493907e-11 -4.25006974e-11  2.12493907e-11  1.91783282e-15 
 2.50000000e+01  2.50000000e-01  0.00000000e+00  2.50000000e-01  0.00000000e+00  0.00000000e+00  6.61649834e-11 -1.32332756e-10  6.61649834e-11  2.78703494e-15 
 2.50000000e+01  3.00000000e-01  0.00000000e+00  3.00000000e-01  0.00000000e+00  0.00000000e+00  1.48815782e-10 -2.97635805e-10  1.48815782e-10  4.26510479e-15 
 2.50000000e+01  3.50000000e-01  0.00000000e+00  3.50000000e-01  0.00000000e+00  0.00000000e+00  3.32345043e-10 -6.64697436e-10  3.32345043e-10  7.32587682e-15 
 2.50000000e+01  4.00000000e-01  0.00000000e+00  4.00000000e-01  0.00000000e+00  0.00000000e+00  7.10273058e-10 -1.42056061e-09  7.10273058e-10  1.44810730e-14 
 2.50000000e+01  4.50000000e-01  0.00000000e+00  4.50000000e-01  0.00000000e+00  0.00000000e+00  1.30149627e-09 -2.60302468e-09  1.30149627e-09  3.21610329e-14 
 2.50000000e+01  5.00000000e-01  0.00000000e+00  5.00000000e-01  0.00000000e+00  0.00000000e+00  2.12334351e-09 -4.24676361e-09  2.12334351e-09  7.66137222e-14 
 2.50000000e+01  5.50000000e-01  0.00000000e+00  5.50000000e-01  0.00000000e+00  0.00000000e+00  3.22085927e-09 -6.44190673e-09  3.22085927e-09  1.88256475e-13 
 2.50000000e+01  6.00000000e-01  0.00000000e+00  6.00000000e-01  0.00000000e+00  0.00000000e+00  4.65230970e-09 -9.30508587e-09  4.65230970e-09  4.66467570e-13 
 2.50000000e+01  6.50000000e-01  0.00000000e+00  6.50000000e-01  0.00000000e+00  0.00000000e+00  6.48629308e-09 -1.29737398e-08  6.48629308e-09  1.15373485e-12 
 2.50000000e+01  7.00000000e-01  0.00000000e+00  7.00000000e-01  0.00000000e+00  0.00000000e+00  8.80317132e-09 -1.76091812e-08  8.80317132e-09  2.83847405e-12 
 2.50000000e+01  7.50000000e-01  0.00000000e+00  7.50000000e-01  0.00000000e+00  0.00000000e+00  1.16971411e-08 -2.34012243e-08  1.16971411e-08  6.94197770e-12 
 2.50000000e+01  8.00000000e-01  0.00000000e+00  8.00000000e-01  0.00000000e+00  0.00000000e+00  1.52784354e-08 -3.05737534e-08  1.52784354e-08  1.68826110e-11 
 2.50000000e+01  8.50000000e-01  0.00000000e+00  8.50000000e-01  0.00000000e+00  0.00000000e+00  1.96757266e-08 -3.93922980e-08  1.96757266e-08  4.08447097e-11 
 2.50000000e+01  9.00000000e-01  0.00000000e+00  9.00000000e-01  0.00000000e+00  0.00000000e+00  2.50388399e-08 -5.01759950e-08  2.50388399e-08  9.83152365e-11 
 2.50000000e+01  9.50000000e-01  0.00000000e+00  9.50000000e-01  0.00000000e+00  0.00000000e+00  3.15418557e-08 -6.33190428e-08  3.15418557e-08  2.35331346e-10 
 2.50000000e+01  1.00000000e+00  0.00000000e+00  1.00000000e+00  0.00000000e+00  0.00000000e+00  3.93866661e-08 -7.93326461e-08  3.93866661e-08  5.59313939e-10 
 2.50000000e+01  1.05000000e+00  0.00000000e+00  1.05000000e+00  0.00000000e+00  0.00000000e+00  4.88070444e-08 -9.89297880e-08  4.88070444e-08  1.31569921e-09 
 2.50000000e+01  1.10000000e+00  0.00000000e+00  1.10000000e+00  0.00000000e+00  0.00000000e+00  6.00732936e-08 -1.23191789e-07  6.00732936e-08  3.04520171e-09 
