 v-sweep         abs(V(alim))    V(drain)        V(gate)         V(source)       V(body)         I(Vd)           I(Vg)           I(Vs)           I(Vb)          
 2.50000000e+01  0.00000000e+00  0.00000000e+00  0.00000000e+00  0.00000000e+00  0.00000000e+00 -5.76988423e-21  8.81193347e-20 -5.76988423e-21 -7.65795662e-20 
 2.50000000e+01  5.00000000e-02  0.00000000e+00  5.00000000e-02  0.00000000e+00  0.00000000e+00  2.22178794e-11 -4.44362394e-11  2.22178794e-11  4.83954334e-16 
 2.50000000e+01  1.00000000e-01  0.00000000e+00  1.00000000e-01  0.00000000e+00  0.00000000e+00  2.23640423e-11 -4.47291371e-11  2.23640423e-11  1.05783910e-15 
 2.50000000e+01  1.50000000e-01  0.00000000e+00  1.50000000e-01  0.00000000e+00  0.00000000e+00  7.34111543e-12 -1.46839624e-11  7.34111543e-12  1.73965935e-15 
 2.50000000e+01  2.00000000e-01  0.00000000e+00  2.00000000e-01  0.00000000e+00  0.00000000e+00  2.86049490e-11 -5.72124847e-11  2.86049490e-11  2.58169803e-15 
 2.50000000e+01  2.50000000e-01  0.00000000e+00  2.50000000e-01  0.00000000e+00  0.00000000e+00  8.90682467e-11 -1.78140253e-10  8.90682467e-11  3.75177780e-15 
 2.50000000e+01  3.00000000e-01  0.00000000e+00  3.00000000e-01  0.00000000e+00  0.00000000e+00  2.00328936e-10 -4.00663641e-10  2.00328936e-10  5.74148720e-15 
 2.50000000e+01  3.50000000e-01  0.00000000e+00  3.50000000e-01  0.00000000e+00  0.00000000e+00  4.47387552e-10 -8.94784968e-10  4.47387552e-10  9.86175716e-15 
 2.50000000e+01  4.00000000e-01  0.00000000e+00  4.00000000e-01  0.00000000e+00  0.00000000e+00  9.56136788e-10 -1.91229305e-09  9.56136788e-10  1.94937517e-14 
 2.50000000e+01  4.50000000e-01  0.00000000e+00  4.50000000e-01  0.00000000e+00  0.00000000e+00  1.75201416e-09 -3.50407164e-09  1.75201416e-09  4.32936960e-14 
 2.50000000e+01  5.00000000e-01  0.00000000e+00  5.00000000e-01  0.00000000e+00  0.00000000e+00  2.85834691e-09 -5.71679698e-09  2.85834691e-09  1.03133848e-13 
 2.50000000e+01  5.50000000e-01  0.00000000e+00  5.50000000e-01  0.00000000e+00  0.00000000e+00  4.33577184e-09 -8.67179711e-09  4.33577184e-09  2.53422144e-13 
 2.50000000e+01  6.00000000e-01  0.00000000e+00  6.00000000e-01  0.00000000e+00  0.00000000e+00  6.26272413e-09 -1.25260762e-08  6.26272413e-09  6.27936992e-13 
 2.50000000e+01  6.50000000e-01  0.00000000e+00  6.50000000e-01  0.00000000e+00  0.00000000e+00  8.73154755e-09 -1.74646482e-08  8.73154755e-09  1.55310419e-12 
 2.50000000e+01  7.00000000e-01  0.00000000e+00  7.00000000e-01  0.00000000e+00  0.00000000e+00  1.18504215e-08 -2.37046641e-08  1.18504215e-08  3.82102137e-12 
 2.50000000e+01  7.50000000e-01  0.00000000e+00  7.50000000e-01  0.00000000e+00  0.00000000e+00  1.57461492e-08 -3.15016433e-08  1.57461492e-08  9.34496552e-12 
 2.50000000e+01  8.00000000e-01  0.00000000e+00  8.00000000e-01  0.00000000e+00  0.00000000e+00  2.05671208e-08 -4.11569683e-08  2.05671208e-08  2.27265776e-11 
 2.50000000e+01  8.50000000e-01  0.00000000e+00  8.50000000e-01  0.00000000e+00  0.00000000e+00  2.64865492e-08 -5.30280816e-08  2.64865492e-08  5.49832194e-11 
 2.50000000e+01  9.00000000e-01  0.00000000e+00  9.00000000e-01  0.00000000e+00  0.00000000e+00  3.37061215e-08 -6.75445904e-08  3.37061215e-08  1.32347301e-10 
 2.50000000e+01  9.50000000e-01  0.00000000e+00  9.50000000e-01  0.00000000e+00  0.00000000e+00  4.24601765e-08 -8.52371448e-08  4.24601765e-08  3.16791798e-10 
 2.50000000e+01  1.00000000e+00  0.00000000e+00  1.00000000e+00  0.00000000e+00  0.00000000e+00  5.30204911e-08 -1.06793904e-07  5.30204911e-08  7.52921432e-10 
 2.50000000e+01  1.05000000e+00  0.00000000e+00  1.05000000e+00  0.00000000e+00  0.00000000e+00  6.57017591e-08 -1.33174648e-07  6.57017591e-08  1.77113015e-09 
 2.50000000e+01  1.10000000e+00  0.00000000e+00  1.10000000e+00  0.00000000e+00  0.00000000e+00  8.08678486e-08 -1.65834998e-07  8.08678486e-08  4.09930041e-09 
