 v-sweep         abs(V(alim))    V(drain)        V(gate)         V(source)       V(body)         I(Vd)           I(Vg)           I(Vs)           I(Vb)          
 2.50000000e+01  0.00000000e+00  0.00000000e+00  0.00000000e+00  0.00000000e+00  0.00000000e+00 -2.63766140e-21  4.02831245e-20 -2.63766140e-21 -3.50078017e-20 
 2.50000000e+01  5.00000000e-02  0.00000000e+00  5.00000000e-02  0.00000000e+00  0.00000000e+00  1.01567449e-11 -2.03137021e-11  1.01567449e-11  2.21236267e-16 
 2.50000000e+01  1.00000000e-01  0.00000000e+00  1.00000000e-01  0.00000000e+00  0.00000000e+00  1.02235622e-11 -2.04476158e-11  1.02235622e-11  4.83583588e-16 
 2.50000000e+01  1.50000000e-01  0.00000000e+00  1.50000000e-01  0.00000000e+00  0.00000000e+00  3.35593848e-12 -6.71268596e-12  3.35593848e-12  7.95272844e-16 
 2.50000000e+01  2.00000000e-01  0.00000000e+00  2.00000000e-01  0.00000000e+00  0.00000000e+00  1.30765481e-11 -2.61542732e-11  1.30765481e-11  1.18020482e-15 
 2.50000000e+01  2.50000000e-01  0.00000000e+00  2.50000000e-01  0.00000000e+00  0.00000000e+00  4.07169129e-11 -8.14355250e-11  4.07169129e-11  1.71509843e-15 
 2.50000000e+01  3.00000000e-01  0.00000000e+00  3.00000000e-01  0.00000000e+00  0.00000000e+00  9.15789432e-11 -1.83160487e-10  9.15789432e-11  2.62467988e-15 
 2.50000000e+01  3.50000000e-01  0.00000000e+00  3.50000000e-01  0.00000000e+00  0.00000000e+00  2.04520028e-10 -4.09044576e-10  2.04520028e-10  4.50823192e-15 
 2.50000000e+01  4.00000000e-01  0.00000000e+00  4.00000000e-01  0.00000000e+00  0.00000000e+00  4.37091120e-10 -8.74191164e-10  4.37091120e-10  8.91142973e-15 
 2.50000000e+01  4.50000000e-01  0.00000000e+00  4.50000000e-01  0.00000000e+00  0.00000000e+00  8.00920804e-10 -1.60186148e-09  8.00920804e-10  1.97914056e-14 
 2.50000000e+01  5.00000000e-01  0.00000000e+00  5.00000000e-01  0.00000000e+00  0.00000000e+00  1.30667297e-09 -2.61339317e-09  1.30667297e-09  4.71469091e-14 
 2.50000000e+01  5.50000000e-01  0.00000000e+00  5.50000000e-01  0.00000000e+00  0.00000000e+00  1.98206733e-09 -3.96425048e-09  1.98206733e-09  1.15850150e-13 
 2.50000000e+01  6.00000000e-01  0.00000000e+00  6.00000000e-01  0.00000000e+00  0.00000000e+00  2.86295998e-09 -5.72620706e-09  2.86295998e-09  2.87057009e-13 
 2.50000000e+01  6.50000000e-01  0.00000000e+00  6.50000000e-01  0.00000000e+00  0.00000000e+00  3.99156526e-09 -7.98384048e-09  3.99156526e-09  7.09990826e-13 
 2.50000000e+01  7.00000000e-01  0.00000000e+00  7.00000000e-01  0.00000000e+00  0.00000000e+00  5.41733669e-09 -1.08364201e-08  5.41733669e-09  1.74675375e-12 
 2.50000000e+01  7.50000000e-01  0.00000000e+00  7.50000000e-01  0.00000000e+00  0.00000000e+00  7.19824151e-09 -1.44007551e-08  7.19824151e-09  4.27198785e-12 
 2.50000000e+01  8.00000000e-01  0.00000000e+00  8.00000000e-01  0.00000000e+00  0.00000000e+00  9.40211541e-09 -1.88146202e-08  9.40211541e-09  1.03893040e-11 
 2.50000000e+01  8.50000000e-01  0.00000000e+00  8.50000000e-01  0.00000000e+00  0.00000000e+00  1.21081415e-08 -2.42414184e-08  1.21081415e-08  2.51352214e-11 
 2.50000000e+01  9.00000000e-01  0.00000000e+00  9.00000000e-01  0.00000000e+00  0.00000000e+00  1.54085201e-08 -3.08775419e-08  1.54085201e-08  6.05017309e-11 
 2.50000000e+01  9.50000000e-01  0.00000000e+00  9.50000000e-01  0.00000000e+00  0.00000000e+00  1.94103777e-08 -3.89655750e-08  1.94103777e-08  1.44819431e-10 
 2.50000000e+01  1.00000000e+00  0.00000000e+00  1.00000000e+00  0.00000000e+00  0.00000000e+00  2.42379558e-08 -4.88201051e-08  2.42379558e-08  3.44193609e-10 
 2.50000000e+01  1.05000000e+00  0.00000000e+00  1.05000000e+00  0.00000000e+00  0.00000000e+00  3.00351153e-08 -6.08798927e-08  3.00351153e-08  8.09662255e-10 
 2.50000000e+01  1.10000000e+00  0.00000000e+00  1.10000000e+00  0.00000000e+00  0.00000000e+00  3.69681971e-08 -7.58103678e-08  3.69681971e-08  1.87397367e-09 
