 v-sweep         abs(V(alim))    V(drain)        V(gate)         V(source)       V(body)         I(Vd)           I(Vg)           I(Vs)           I(Vb)          
 2.50000000e+01  0.00000000e+00  0.00000000e+00  0.00000000e+00  0.00000000e+00  0.00000000e+00 -5.76988435e-22  8.81193349e-21 -5.76988435e-22 -7.65795662e-21 
 2.50000000e+01  5.00000000e-02  0.00000000e+00  5.00000000e-02  0.00000000e+00  0.00000000e+00  2.22178794e-12 -4.44361214e-12  2.22178794e-12  4.83954335e-17 
 2.50000000e+01  1.00000000e-01  0.00000000e+00  1.00000000e-01  0.00000000e+00  0.00000000e+00  2.23640423e-12 -4.47292203e-12  2.23640423e-12  1.05783910e-16 
 2.50000000e+01  1.50000000e-01  0.00000000e+00  1.50000000e-01  0.00000000e+00  0.00000000e+00  7.34111542e-13 -1.46849199e-12  7.34111542e-13  1.73965935e-16 
 2.50000000e+01  2.00000000e-01  0.00000000e+00  2.00000000e-01  0.00000000e+00  0.00000000e+00  2.86049490e-12 -5.72131231e-12  2.86049490e-12  2.58169803e-16 
 2.50000000e+01  2.50000000e-01  0.00000000e+00  2.50000000e-01  0.00000000e+00  0.00000000e+00  8.90682472e-12 -1.78139725e-11  8.90682472e-12  3.75177781e-16 
 2.50000000e+01  3.00000000e-01  0.00000000e+00  3.00000000e-01  0.00000000e+00  0.00000000e+00  2.00328939e-11 -4.00659506e-11  2.00328939e-11  5.74148724e-16 
 2.50000000e+01  3.50000000e-01  0.00000000e+00  3.50000000e-01  0.00000000e+00  0.00000000e+00  4.47387564e-11 -8.94786467e-11  4.47387564e-11  9.86175737e-16 
 2.50000000e+01  4.00000000e-01  0.00000000e+00  4.00000000e-01  0.00000000e+00  0.00000000e+00  9.56136835e-11 -1.91229033e-10  9.56136835e-11  1.94937528e-15 
 2.50000000e+01  4.50000000e-01  0.00000000e+00  4.50000000e-01  0.00000000e+00  0.00000000e+00  1.75201428e-10 -3.50407037e-10  1.75201428e-10  4.32937008e-15 
 2.50000000e+01  5.00000000e-01  0.00000000e+00  5.00000000e-01  0.00000000e+00  0.00000000e+00  2.85834719e-10 -5.71680037e-10  2.85834719e-10  1.03133868e-14 
 2.50000000e+01  5.50000000e-01  0.00000000e+00  5.50000000e-01  0.00000000e+00  0.00000000e+00  4.33577240e-10 -8.67180106e-10  4.33577240e-10  2.53422220e-14 
 2.50000000e+01  6.00000000e-01  0.00000000e+00  6.00000000e-01  0.00000000e+00  0.00000000e+00  6.26272517e-10 -1.25260780e-09  6.26272517e-10  6.27937262e-14 
 2.50000000e+01  6.50000000e-01  0.00000000e+00  6.50000000e-01  0.00000000e+00  0.00000000e+00  8.73154939e-10 -1.74646519e-09  8.73154939e-10  1.55310512e-13 
 2.50000000e+01  7.00000000e-01  0.00000000e+00  7.00000000e-01  0.00000000e+00  0.00000000e+00  1.18504247e-09 -2.37046649e-09  1.18504247e-09  3.82102446e-13 
 2.50000000e+01  7.50000000e-01  0.00000000e+00  7.50000000e-01  0.00000000e+00  0.00000000e+00  1.57461544e-09 -3.15016546e-09  1.57461544e-09  9.34497548e-13 
 2.50000000e+01  8.00000000e-01  0.00000000e+00  8.00000000e-01  0.00000000e+00  0.00000000e+00  2.05671292e-09 -4.11569800e-09  2.05671292e-09  2.27266091e-12 
 2.50000000e+01  8.50000000e-01  0.00000000e+00  8.50000000e-01  0.00000000e+00  0.00000000e+00  2.64865623e-09 -5.30281108e-09  2.64865623e-09  5.49833168e-12 
 2.50000000e+01  9.00000000e-01  0.00000000e+00  9.00000000e-01  0.00000000e+00  0.00000000e+00  3.37061419e-09 -6.75446277e-09  3.37061419e-09  1.32347598e-11 
 2.50000000e+01  9.50000000e-01  0.00000000e+00  9.50000000e-01  0.00000000e+00  0.00000000e+00  4.24602075e-09 -8.52372128e-09  4.24602075e-09  3.16792688e-11 
 2.50000000e+01  1.00000000e+00  0.00000000e+00  1.00000000e+00  0.00000000e+00  0.00000000e+00  5.30205379e-09 -1.06794005e-08  5.30205379e-09  7.52924060e-11 
 2.50000000e+01  1.05000000e+00  0.00000000e+00  1.05000000e+00  0.00000000e+00  0.00000000e+00  6.57018291e-09 -1.33174796e-08  6.57018291e-09  1.77113775e-10 
 2.50000000e+01  1.10000000e+00  0.00000000e+00  1.10000000e+00  0.00000000e+00  0.00000000e+00  8.08679526e-09 -1.65835221e-08  8.08679526e-09  4.09932181e-10 
