 v-sweep         abs(V(alim))    V(drain)        V(gate)         V(source)       V(body)         I(Vd)           I(Vg)           I(Vs)           I(Vb)          
 2.50000000e+01  0.00000000e+00  0.00000000e+00  0.00000000e+00  0.00000000e+00  0.00000000e+00 -2.06067298e-21  3.14711910e-20 -2.06067298e-21 -2.73498451e-20 
 2.50000000e+01  5.00000000e-02  0.00000000e+00  5.00000000e-02  0.00000000e+00  0.00000000e+00  7.93495693e-12 -1.58700691e-11  7.93495693e-12  1.72840834e-16 
 2.50000000e+01  1.00000000e-01  0.00000000e+00  1.00000000e-01  0.00000000e+00  0.00000000e+00  7.98715797e-12 -1.59746938e-11  7.98715797e-12  3.77799678e-16 
 2.50000000e+01  1.50000000e-01  0.00000000e+00  1.50000000e-01  0.00000000e+00  0.00000000e+00  2.62182694e-12 -5.24430499e-12  2.62182694e-12  6.21306910e-16 
 2.50000000e+01  2.00000000e-01  0.00000000e+00  2.00000000e-01  0.00000000e+00  0.00000000e+00  1.02160532e-11 -2.04329886e-11  1.02160532e-11  9.22035012e-16 
 2.50000000e+01  2.50000000e-01  0.00000000e+00  2.50000000e-01  0.00000000e+00  0.00000000e+00  3.18100883e-11 -6.36214970e-11  3.18100883e-11  1.33992065e-15 
 2.50000000e+01  3.00000000e-01  0.00000000e+00  3.00000000e-01  0.00000000e+00  0.00000000e+00  7.15460494e-11 -1.43094148e-10  7.15460494e-11  2.05053115e-15 
 2.50000000e+01  3.50000000e-01  0.00000000e+00  3.50000000e-01  0.00000000e+00  0.00000000e+00  1.59781272e-10 -3.19566151e-10  1.59781272e-10  3.52205619e-15 
 2.50000000e+01  4.00000000e-01  0.00000000e+00  4.00000000e-01  0.00000000e+00  0.00000000e+00  3.41477439e-10 -6.82961798e-10  3.41477439e-10  6.96205451e-15 
 2.50000000e+01  4.50000000e-01  0.00000000e+00  4.50000000e-01  0.00000000e+00  0.00000000e+00  6.25719382e-10 -1.25145416e-09  6.25719382e-10  1.54620358e-14 
 2.50000000e+01  5.00000000e-01  0.00000000e+00  5.00000000e-01  0.00000000e+00  0.00000000e+00  1.02083827e-09 -2.04171335e-09  1.02083827e-09  3.68335233e-14 
 2.50000000e+01  5.50000000e-01  0.00000000e+00  5.50000000e-01  0.00000000e+00  0.00000000e+00  1.54849012e-09 -3.09707082e-09  1.54849012e-09  9.05079322e-14 
 2.50000000e+01  6.00000000e-01  0.00000000e+00  6.00000000e-01  0.00000000e+00  0.00000000e+00  2.23668752e-09 -4.47359927e-09  2.23668752e-09  2.24263296e-13 
 2.50000000e+01  6.50000000e-01  0.00000000e+00  6.50000000e-01  0.00000000e+00  0.00000000e+00  3.11841042e-09 -6.23737550e-09  3.11841042e-09  5.54680360e-13 
 2.50000000e+01  7.00000000e-01  0.00000000e+00  7.00000000e-01  0.00000000e+00  0.00000000e+00  4.23229438e-09 -8.46595349e-09  4.23229438e-09  1.36465146e-12 
 2.50000000e+01  7.50000000e-01  0.00000000e+00  7.50000000e-01  0.00000000e+00  0.00000000e+00  5.62362633e-09 -1.12505902e-08  5.62362633e-09  3.33749080e-12 
 2.50000000e+01  8.00000000e-01  0.00000000e+00  8.00000000e-01  0.00000000e+00  0.00000000e+00  7.34540291e-09 -1.46989225e-08  7.34540291e-09  8.11664472e-12 
 2.50000000e+01  8.50000000e-01  0.00000000e+00  8.50000000e-01  0.00000000e+00  0.00000000e+00  9.45948597e-09 -1.89386087e-08  9.45948597e-09  1.96368946e-11 
 2.50000000e+01  9.00000000e-01  0.00000000e+00  9.00000000e-01  0.00000000e+00  0.00000000e+00  1.20379069e-08 -2.41230809e-08  1.20379069e-08  4.72669861e-11 
 2.50000000e+01  9.50000000e-01  0.00000000e+00  9.50000000e-01  0.00000000e+00  0.00000000e+00  1.51643585e-08 -3.04418570e-08  1.51643585e-08  1.13140207e-10 
 2.50000000e+01  1.00000000e+00  0.00000000e+00  1.00000000e+00  0.00000000e+00  0.00000000e+00  1.89359043e-08 -3.81407099e-08  1.89359043e-08  2.68901335e-10 
 2.50000000e+01  1.05000000e+00  0.00000000e+00  1.05000000e+00  0.00000000e+00  0.00000000e+00  2.34649359e-08 -4.75624207e-08  2.34649359e-08  6.32548862e-10 
 2.50000000e+01  1.10000000e+00  0.00000000e+00  1.10000000e+00  0.00000000e+00  0.00000000e+00  2.88814071e-08 -5.92268570e-08  2.88814071e-08  1.46404256e-09 
