 v-sweep         abs(V(alim))    V(drain)        V(gate)         V(source)       V(body)         I(Vd)           I(Vg)           I(Vs)           I(Vb)          
 2.50000000e+01  0.00000000e+00  0.00000000e+00  0.00000000e+00  0.00000000e+00  0.00000000e+00 -1.31883071e-21  2.01415623e-20 -1.31883071e-21 -1.75039008e-20 
 2.50000000e+01  5.00000000e-02  0.00000000e+00  5.00000000e-02  0.00000000e+00  0.00000000e+00  5.07837243e-12 -1.01568753e-11  5.07837243e-12  1.10618134e-16 
 2.50000000e+01  1.00000000e-01  0.00000000e+00  1.00000000e-01  0.00000000e+00  0.00000000e+00  5.11178110e-12 -1.02237940e-11  5.11178110e-12  2.41791794e-16 
 2.50000000e+01  1.50000000e-01  0.00000000e+00  1.50000000e-01  0.00000000e+00  0.00000000e+00  1.67796924e-12 -3.35631523e-12  1.67796924e-12  3.97636422e-16 
 2.50000000e+01  2.00000000e-01  0.00000000e+00  2.00000000e-01  0.00000000e+00  0.00000000e+00  6.53827407e-12 -1.30770950e-11  6.53827407e-12  5.90102408e-16 
 2.50000000e+01  2.50000000e-01  0.00000000e+00  2.50000000e-01  0.00000000e+00  0.00000000e+00  2.03584565e-11 -4.07177625e-11  2.03584565e-11  8.57549213e-16 
 2.50000000e+01  3.00000000e-01  0.00000000e+00  3.00000000e-01  0.00000000e+00  0.00000000e+00  4.57894717e-11 -9.15801879e-11  4.57894717e-11  1.31233994e-15 
 2.50000000e+01  3.50000000e-01  0.00000000e+00  3.50000000e-01  0.00000000e+00  0.00000000e+00  1.02260015e-10 -2.04522288e-10  1.02260015e-10  2.25411597e-15 
 2.50000000e+01  4.00000000e-01  0.00000000e+00  4.00000000e-01  0.00000000e+00  0.00000000e+00  2.18545562e-10 -4.37095582e-10  2.18545562e-10  4.45571490e-15 
 2.50000000e+01  4.50000000e-01  0.00000000e+00  4.50000000e-01  0.00000000e+00  0.00000000e+00  4.00460406e-10 -8.00930766e-10  4.00460406e-10  9.89570299e-15 
 2.50000000e+01  5.00000000e-01  0.00000000e+00  5.00000000e-01  0.00000000e+00  0.00000000e+00  6.53336497e-10 -1.30669653e-09  6.53336497e-10  2.35734553e-14 
 2.50000000e+01  5.50000000e-01  0.00000000e+00  5.50000000e-01  0.00000000e+00  0.00000000e+00  9.91033685e-10 -1.98212513e-09  9.91033685e-10  5.79250780e-14 
 2.50000000e+01  6.00000000e-01  0.00000000e+00  6.00000000e-01  0.00000000e+00  0.00000000e+00  1.43148003e-09 -2.86310375e-09  1.43148003e-09  1.43528514e-13 
 2.50000000e+01  6.50000000e-01  0.00000000e+00  6.50000000e-01  0.00000000e+00  0.00000000e+00  1.99578270e-09 -3.99192013e-09  1.99578270e-09  3.54995447e-13 
 2.50000000e+01  7.00000000e-01  0.00000000e+00  7.00000000e-01  0.00000000e+00  0.00000000e+00  2.70866846e-09 -5.41821032e-09  2.70866846e-09  8.73376986e-13 
 2.50000000e+01  7.50000000e-01  0.00000000e+00  7.50000000e-01  0.00000000e+00  0.00000000e+00  3.59912094e-09 -7.20037785e-09  3.59912094e-09  2.13599429e-12 
 2.50000000e+01  8.00000000e-01  0.00000000e+00  8.00000000e-01  0.00000000e+00  0.00000000e+00  4.70105801e-09 -9.40731093e-09  4.70105801e-09  5.19465318e-12 
 2.50000000e+01  8.50000000e-01  0.00000000e+00  8.50000000e-01  0.00000000e+00  0.00000000e+00  6.05407125e-09 -1.21207100e-08  6.05407125e-09  1.25676143e-11 
 2.50000000e+01  9.00000000e-01  0.00000000e+00  9.00000000e-01  0.00000000e+00  0.00000000e+00  7.70426079e-09 -1.54387725e-08  7.70426079e-09  3.02508764e-11 
 2.50000000e+01  9.50000000e-01  0.00000000e+00  9.50000000e-01  0.00000000e+00  0.00000000e+00  9.70518998e-09 -1.94827892e-08  9.70518998e-09  7.24097481e-11 
 2.50000000e+01  1.00000000e+00  0.00000000e+00  1.00000000e+00  0.00000000e+00  0.00000000e+00  1.21189796e-08 -2.44100558e-08  1.21189796e-08  1.72096901e-10 
 2.50000000e+01  1.05000000e+00  0.00000000e+00  1.05000000e+00  0.00000000e+00  0.00000000e+00  1.50175602e-08 -3.04399523e-08  1.50175602e-08  4.04831407e-10 
 2.50000000e+01  1.10000000e+00  0.00000000e+00  1.10000000e+00  0.00000000e+00  0.00000000e+00  1.84841024e-08 -3.79051919e-08  1.84841024e-08  9.36987620e-10 
