 v-sweep         abs(V(alim))    V(drain)        V(gate)         V(source)       V(body)         I(Vd)           I(Vg)           I(Vs)           I(Vb)          
 2.50000000e+01  0.00000000e+00  0.00000000e+00  0.00000000e+00  0.00000000e+00  0.00000000e+00 -5.76988435e-22  8.81193349e-21 -5.76988435e-22 -7.65795662e-21 
 2.50000000e+01  5.00000000e-02  0.00000000e+00  0.00000000e+00  5.00000000e-02  0.00000000e+00  4.19703052e-10  5.10764260e-12 -4.24810695e-10  9.20792146e-20 
 2.50000000e+01  1.00000000e-01  0.00000000e+00  0.00000000e+00  1.00000000e-01  0.00000000e+00  5.36509914e-10  1.39085284e-11 -5.50418443e-10  2.59867958e-19 
 2.50000000e+01  1.50000000e-01  0.00000000e+00  0.00000000e+00  1.50000000e-01  0.00000000e+00  6.26856681e-10  2.73669803e-11 -6.54223662e-10  4.91305074e-19 
 2.50000000e+01  2.00000000e-01  0.00000000e+00  0.00000000e+00  2.00000000e-01  0.00000000e+00  7.22696160e-10  4.66315014e-11 -7.69327662e-10  7.89561236e-19 
 2.50000000e+01  2.50000000e-01  0.00000000e+00  0.00000000e+00  2.50000000e-01  0.00000000e+00  8.29554125e-10  7.30653341e-11 -9.02619461e-10  1.16585168e-18 
 2.50000000e+01  3.00000000e-01  0.00000000e+00  0.00000000e+00  3.00000000e-01  0.00000000e+00  9.50194748e-10  1.08281409e-10 -1.05847616e-09  1.63489341e-18 
 2.50000000e+01  3.50000000e-01  0.00000000e+00  0.00000000e+00  3.50000000e-01  0.00000000e+00  1.08697780e-09  1.54182428e-10 -1.24116023e-09  2.21450943e-18 
 2.50000000e+01  4.00000000e-01  0.00000000e+00  0.00000000e+00  4.00000000e-01  0.00000000e+00  1.24232476e-09  2.13006844e-10 -1.45533161e-09  2.92585480e-18 
 2.50000000e+01  4.50000000e-01  0.00000000e+00  0.00000000e+00  4.50000000e-01  0.00000000e+00  1.41887317e-09  2.87381563e-10 -1.70625473e-09  3.79384990e-18 
 2.50000000e+01  5.00000000e-01  0.00000000e+00  0.00000000e+00  5.00000000e-01  0.00000000e+00  1.61955677e-09  3.80382318e-10 -1.99993909e-09  4.84773723e-18 
 2.50000000e+01  5.50000000e-01  0.00000000e+00  0.00000000e+00  5.50000000e-01  0.00000000e+00  1.84766504e-09  4.95602777e-10 -2.34326782e-09  6.12174283e-18 
 2.50000000e+01  6.00000000e-01  0.00000000e+00  0.00000000e+00  6.00000000e-01  0.00000000e+00  2.10689798e-09  6.37233574e-10 -2.74413156e-09  7.65584320e-18 
 2.50000000e+01  6.50000000e-01  0.00000000e+00  0.00000000e+00  6.50000000e-01  0.00000000e+00  2.40142213e-09  8.10152645e-10 -3.21157479e-09  9.49664656e-18 
 2.50000000e+01  7.00000000e-01  0.00000000e+00  0.00000000e+00  7.00000000e-01  0.00000000e+00  2.73593041e-09  1.02002839e-09 -3.75595881e-09  1.16984006e-17 
 2.50000000e+01  7.50000000e-01  0.00000000e+00  0.00000000e+00  7.50000000e-01  0.00000000e+00  3.11570732e-09  1.27343742e-09 -4.38914476e-09  1.43241415e-17 
 2.50000000e+01  8.00000000e-01  0.00000000e+00  0.00000000e+00  8.00000000e-01  0.00000000e+00  3.54670074e-09  1.57799886e-09 -5.12469961e-09  1.74470013e-17 
 2.50000000e+01  8.50000000e-01  0.00000000e+00  0.00000000e+00  8.50000000e-01  0.00000000e+00  4.03560109e-09  1.94252742e-09 -5.97812853e-09  2.11516919e-17 
 2.50000000e+01  9.00000000e-01  0.00000000e+00  0.00000000e+00  9.00000000e-01  0.00000000e+00  4.58992914e-09  2.37720781e-09 -6.96713697e-09  2.55361865e-17 
 2.50000000e+01  9.50000000e-01  0.00000000e+00  0.00000000e+00  9.50000000e-01  0.00000000e+00  5.21813338e-09  2.89379326e-09 -8.11192671e-09  8.03904049e-17 
 2.50000000e+01  1.00000000e+00  0.00000000e+00  0.00000000e+00  1.00000000e+00  0.00000000e+00  5.92969828e-09  3.50583149e-09 -9.43553064e-09  8.65672010e-16 
 2.50000000e+01  1.05000000e+00  0.00000000e+00  0.00000000e+00  1.05000000e+00  0.00000000e+00  6.73526490e-09  4.22892166e-09 -1.09643075e-08  1.20896838e-13 
 2.50000000e+01  1.10000000e+00  0.00000000e+00  0.00000000e+00  1.10000000e+00  0.00000000e+00  7.64676533e-09  5.08100648e-09 -1.27339813e-08  6.20953329e-12 
