 v-sweep         abs(V(alim))    V(drain)        V(gate)         V(source)       V(body)         I(Vd)           I(Vg)           I(Vs)           I(Vb)          
 2.50000000e+01  0.00000000e+00  0.00000000e+00  0.00000000e+00  0.00000000e+00  0.00000000e+00 -4.28619975e-21  6.54600772e-20 -4.28619975e-21 -5.68876777e-20 
 2.50000000e+01  5.00000000e-02  0.00000000e+00  0.00000000e+00  5.00000000e-02  0.00000000e+00  3.12331110e-09  3.79424878e-11 -3.16125359e-09  4.86225190e-19 
 2.50000000e+01  1.00000000e-01  0.00000000e+00  0.00000000e+00  1.00000000e-01  0.00000000e+00  3.99240898e-09  1.03320496e-10 -4.09572947e-09  1.70261950e-18 
 2.50000000e+01  1.50000000e-01  0.00000000e+00  0.00000000e+00  1.50000000e-01  0.00000000e+00  4.66430814e-09  2.03297567e-10 -4.86760571e-09  3.41668958e-18 
 2.50000000e+01  2.00000000e-01  0.00000000e+00  0.00000000e+00  2.00000000e-01  0.00000000e+00  5.37716301e-09  3.46405437e-10 -5.72356845e-09  5.63128836e-18 
 2.50000000e+01  2.50000000e-01  0.00000000e+00  0.00000000e+00  2.50000000e-01  0.00000000e+00  6.17205160e-09  5.42771050e-10 -6.71482266e-09  8.42686757e-18 
 2.50000000e+01  3.00000000e-01  0.00000000e+00  0.00000000e+00  3.00000000e-01  0.00000000e+00  7.06951431e-09  8.04376173e-10 -7.87389049e-09  1.19124768e-17 
 2.50000000e+01  3.50000000e-01  0.00000000e+00  0.00000000e+00  3.50000000e-01  0.00000000e+00  8.08709522e-09  1.14535517e-09 -9.23245040e-09  1.62206394e-17 
 2.50000000e+01  4.00000000e-01  0.00000000e+00  0.00000000e+00  4.00000000e-01  0.00000000e+00  9.24280350e-09  1.58233653e-09 -1.08251401e-08  2.15087215e-17 
 2.50000000e+01  4.50000000e-01  0.00000000e+00  0.00000000e+00  4.50000000e-01  0.00000000e+00  1.05562589e-08  2.13483443e-09 -1.26910933e-08  2.79621093e-17 
 2.50000000e+01  5.00000000e-01  0.00000000e+00  0.00000000e+00  5.00000000e-01  0.00000000e+00  1.20492863e-08  2.82569716e-09 -1.48749835e-08  3.57983446e-17 
 2.50000000e+01  5.50000000e-01  0.00000000e+00  0.00000000e+00  5.50000000e-01  0.00000000e+00  1.37463583e-08  3.68162053e-09 -1.74279788e-08  4.52720438e-17 
 2.50000000e+01  6.00000000e-01  0.00000000e+00  0.00000000e+00  6.00000000e-01  0.00000000e+00  1.56750018e-08  4.73373496e-09 -2.04087368e-08  5.66806026e-17 
 2.50000000e+01  6.50000000e-01  0.00000000e+00  0.00000000e+00  6.50000000e-01  0.00000000e+00  1.78662149e-08  6.01827655e-09 -2.38844915e-08  7.03707512e-17 
 2.50000000e+01  7.00000000e-01  0.00000000e+00  0.00000000e+00  7.00000000e-01  0.00000000e+00  2.03549117e-08  7.57735338e-09 -2.79322652e-08  8.67460500e-17 
 2.50000000e+01  7.50000000e-01  0.00000000e+00  0.00000000e+00  7.50000000e-01  0.00000000e+00  2.31804072e-08  9.45982028e-09 -3.26402276e-08  1.06275436e-16 
 2.50000000e+01  8.00000000e-01  0.00000000e+00  0.00000000e+00  8.00000000e-01  0.00000000e+00  2.63869506e-08  1.17222764e-08 -3.81092272e-08  1.29502945e-16 
 2.50000000e+01  8.50000000e-01  0.00000000e+00  0.00000000e+00  8.50000000e-01  0.00000000e+00  3.00243145e-08  1.44302025e-08 -4.44545171e-08  1.57058748e-16 
 2.50000000e+01  9.00000000e-01  0.00000000e+00  0.00000000e+00  9.00000000e-01  0.00000000e+00  3.41484467e-08  1.76592562e-08 -5.18077031e-08  1.89671655e-16 
 2.50000000e+01  9.50000000e-01  0.00000000e+00  0.00000000e+00  9.50000000e-01  0.00000000e+00  3.88221944e-08  2.14967474e-08 -6.03189424e-08  5.94790038e-16 
 2.50000000e+01  1.00000000e+00  0.00000000e+00  0.00000000e+00  1.00000000e+00  0.00000000e+00  4.41161084e-08  2.60433160e-08 -7.01594304e-08  5.95353025e-15 
 2.50000000e+01  1.05000000e+00  0.00000000e+00  0.00000000e+00  1.05000000e+00  0.00000000e+00  5.01093387e-08  3.14148415e-08 -8.15249098e-08  7.29680034e-13 
 2.50000000e+01  1.10000000e+00  0.00000000e+00  0.00000000e+00  1.10000000e+00  0.00000000e+00  5.68906328e-08  3.77446122e-08 -9.46725230e-08  3.72780358e-11 
