 v-sweep         abs(V(alim))    V(drain)        V(gate)         V(source)       V(body)         I(Vd)           I(Vg)           I(Vs)           I(Vb)          
 2.50000000e+01  0.00000000e+00  0.00000000e+00  0.00000000e+00  0.00000000e+00  0.00000000e+00 -5.76988423e-21  8.81193347e-20 -5.76988423e-21 -7.65795662e-20 
 2.50000000e+01  5.00000000e-02  0.00000000e+00  0.00000000e+00  5.00000000e-02  0.00000000e+00  4.20481785e-09  5.10764258e-11 -4.25589428e-09  6.43881575e-19 
 2.50000000e+01  1.00000000e-01  0.00000000e+00  0.00000000e+00  1.00000000e-01  0.00000000e+00  5.37484607e-09  1.39085283e-10 -5.51393135e-09  2.27972790e-18 
 2.50000000e+01  1.50000000e-01  0.00000000e+00  0.00000000e+00  1.50000000e-01  0.00000000e+00  6.27937351e-09  2.73669801e-10 -6.55304331e-09  4.58687310e-18 
 2.50000000e+01  2.00000000e-01  0.00000000e+00  0.00000000e+00  2.00000000e-01  0.00000000e+00  7.23904387e-09  4.66315010e-10 -7.70535889e-09  7.56803949e-18 
 2.50000000e+01  2.50000000e-01  0.00000000e+00  0.00000000e+00  2.50000000e-01  0.00000000e+00  8.30915620e-09  7.30653332e-10 -9.03980954e-09  1.13313740e-17 
 2.50000000e+01  3.00000000e-01  0.00000000e+00  0.00000000e+00  3.00000000e-01  0.00000000e+00  9.51736136e-09  1.08281407e-09 -1.06001754e-08  1.60236608e-17 
 2.50000000e+01  3.50000000e-01  0.00000000e+00  0.00000000e+00  3.50000000e-01  0.00000000e+00  1.08872773e-08  1.54182425e-09 -1.24291016e-08  2.18233056e-17 
 2.50000000e+01  4.00000000e-01  0.00000000e+00  0.00000000e+00  4.00000000e-01  0.00000000e+00  1.24431485e-08  2.13006838e-09 -1.45732169e-08  2.89421614e-17 
 2.50000000e+01  4.50000000e-01  0.00000000e+00  0.00000000e+00  4.50000000e-01  0.00000000e+00  1.42113878e-08  2.87381553e-09 -1.70852034e-08  3.76298039e-17 
 2.50000000e+01  5.00000000e-01  0.00000000e+00  0.00000000e+00  5.00000000e-01  0.00000000e+00  1.62213771e-08  3.80382302e-09 -2.00252002e-08  4.81790985e-17 
 2.50000000e+01  5.50000000e-01  0.00000000e+00  0.00000000e+00  5.50000000e-01  0.00000000e+00  1.85060624e-08  4.95602752e-09 -2.34620899e-08  6.09328218e-17 
 2.50000000e+01  6.00000000e-01  0.00000000e+00  0.00000000e+00  6.00000000e-01  0.00000000e+00  2.11025020e-08  6.37233536e-09 -2.74748374e-08  7.62913426e-17 
 2.50000000e+01  6.50000000e-01  0.00000000e+00  0.00000000e+00  6.50000000e-01  0.00000000e+00  2.40524273e-08  8.10152586e-09 -3.21539532e-08  9.47214460e-17 
 2.50000000e+01  7.00000000e-01  0.00000000e+00  0.00000000e+00  7.00000000e-01  0.00000000e+00  2.74028414e-08  1.02002830e-08 -3.76031245e-08  1.16766425e-16 
 2.50000000e+01  7.50000000e-01  0.00000000e+00  0.00000000e+00  7.50000000e-01  0.00000000e+00  3.12066724e-08  1.27343729e-08 -4.39410454e-08  1.43057585e-16 
 2.50000000e+01  8.00000000e-01  0.00000000e+00  0.00000000e+00  8.00000000e-01  0.00000000e+00  3.55234908e-08  1.57799866e-08 -5.13034776e-08  1.74327334e-16 
 2.50000000e+01  8.50000000e-01  0.00000000e+00  0.00000000e+00  8.50000000e-01  0.00000000e+00  4.04203032e-08  1.94252712e-08 -5.98455746e-08  2.11424040e-16 
 2.50000000e+01  9.00000000e-01  0.00000000e+00  0.00000000e+00  9.00000000e-01  0.00000000e+00  4.59724295e-08  2.37720738e-08 -6.97445035e-08  2.55328859e-16 
 2.50000000e+01  9.50000000e-01  0.00000000e+00  0.00000000e+00  9.50000000e-01  0.00000000e+00  5.22644777e-08  2.89379264e-08 -8.12024049e-08  8.00524742e-16 
 2.50000000e+01  1.00000000e+00  0.00000000e+00  0.00000000e+00  1.00000000e+00  0.00000000e+00  5.93914270e-08  3.50583060e-08 -9.44497410e-08  7.98851291e-15 
 2.50000000e+01  1.05000000e+00  0.00000000e+00  0.00000000e+00  1.05000000e+00  0.00000000e+00  6.74598327e-08  4.22892040e-08 -1.09750010e-07  9.73189552e-13 
 2.50000000e+01  1.10000000e+00  0.00000000e+00  0.00000000e+00  1.10000000e+00  0.00000000e+00  7.65891712e-08  5.08100469e-08 -1.27448923e-07  4.97053003e-11 
