 v-sweep         abs(V(alim))    V(drain)        V(gate)         V(source)       V(body)         I(Vd)           I(Vg)           I(Vs)           I(Vb)          
 2.50000000e+01  0.00000000e+00  0.00000000e+00  0.00000000e+00  0.00000000e+00  0.00000000e+00 -1.31883071e-21  2.01415623e-20 -1.31883071e-21 -1.75039008e-20 
 2.50000000e+01  5.00000000e-02  0.00000000e+00  0.00000000e+00  5.00000000e-02  0.00000000e+00  9.60351192e-10  1.16746117e-11 -9.72025804e-10  1.70911039e-19 
 2.50000000e+01  1.00000000e-01  0.00000000e+00  0.00000000e+00  1.00000000e-01  0.00000000e+00  1.22760000e-09  3.17909219e-11 -1.25939093e-09  5.48410073e-19 
 2.50000000e+01  1.50000000e-01  0.00000000e+00  0.00000000e+00  1.50000000e-01  0.00000000e+00  1.43424871e-09  6.25530979e-11 -1.49680181e-09  1.07634923e-18 
 2.50000000e+01  2.00000000e-01  0.00000000e+00  0.00000000e+00  2.00000000e-01  0.00000000e+00  1.65348042e-09  1.06586289e-10 -1.76006671e-09  1.75783977e-18 
 2.50000000e+01  2.50000000e-01  0.00000000e+00  0.00000000e+00  2.50000000e-01  0.00000000e+00  1.89793120e-09  1.67006478e-10 -2.06493768e-09  2.61794368e-18 
 2.50000000e+01  3.00000000e-01  0.00000000e+00  0.00000000e+00  3.00000000e-01  0.00000000e+00  2.17392049e-09  2.47500363e-10 -2.42142085e-09  3.69024277e-18 
 2.50000000e+01  3.50000000e-01  0.00000000e+00  0.00000000e+00  3.50000000e-01  0.00000000e+00  2.48684478e-09  3.52416979e-10 -2.83926177e-09  5.01549784e-18 
 2.50000000e+01  4.00000000e-01  0.00000000e+00  0.00000000e+00  4.00000000e-01  0.00000000e+00  2.84224286e-09  4.86872786e-10 -3.32911566e-09  6.64210340e-18 
 2.50000000e+01  4.50000000e-01  0.00000000e+00  0.00000000e+00  4.50000000e-01  0.00000000e+00  3.24614839e-09  6.56872142e-10 -3.90302054e-09  8.62706973e-18 
 2.50000000e+01  5.00000000e-01  0.00000000e+00  0.00000000e+00  5.00000000e-01  0.00000000e+00  3.70527298e-09  8.69445296e-10 -4.57471829e-09  1.10372953e-17 
 2.50000000e+01  5.50000000e-01  0.00000000e+00  0.00000000e+00  5.50000000e-01  0.00000000e+00  4.22714225e-09  1.13280634e-09 -5.35994861e-09  1.39510798e-17 
 2.50000000e+01  6.00000000e-01  0.00000000e+00  0.00000000e+00  6.00000000e-01  0.00000000e+00  4.82022110e-09  1.45653388e-09 -6.27675500e-09  1.74598781e-17 
 2.50000000e+01  6.50000000e-01  0.00000000e+00  0.00000000e+00  6.50000000e-01  0.00000000e+00  5.49404183e-09  1.85177747e-09 -7.34581932e-09  2.16703169e-17 
 2.50000000e+01  7.00000000e-01  0.00000000e+00  0.00000000e+00  7.00000000e-01  0.00000000e+00  6.25934091e-09  2.33149345e-09 -8.59083439e-09  2.67064990e-17 
 2.50000000e+01  7.50000000e-01  0.00000000e+00  0.00000000e+00  7.50000000e-01  0.00000000e+00  7.12820826e-09  2.91071409e-09 -1.00389224e-08  3.27126328e-17 
 2.50000000e+01  8.00000000e-01  0.00000000e+00  0.00000000e+00  8.00000000e-01  0.00000000e+00  8.11425121e-09  3.60685451e-09 -1.17211058e-08  3.98560214e-17 
 2.50000000e+01  8.50000000e-01  0.00000000e+00  0.00000000e+00  8.50000000e-01  0.00000000e+00  9.23277570e-09  4.44006265e-09 -1.36728384e-08  4.83304577e-17 
 2.50000000e+01  9.00000000e-01  0.00000000e+00  0.00000000e+00  9.00000000e-01  0.00000000e+00  1.05009870e-08  5.43361780e-09 -1.59346048e-08  5.83600696e-17 
 2.50000000e+01  9.50000000e-01  0.00000000e+00  0.00000000e+00  9.50000000e-01  0.00000000e+00  1.19382121e-08  6.61438452e-09 -1.85525969e-08  1.83299982e-16 
 2.50000000e+01  1.00000000e+00  0.00000000e+00  0.00000000e+00  1.00000000e+00  0.00000000e+00  1.35661478e-08  8.01332903e-09 -2.15794787e-08  1.88342231e-15 
 2.50000000e+01  1.05000000e+00  0.00000000e+00  0.00000000e+00  1.05000000e+00  0.00000000e+00  1.54091355e-08  9.66610653e-09 -2.50754847e-08  2.42654876e-13 
 2.50000000e+01  1.10000000e+00  0.00000000e+00  0.00000000e+00  1.10000000e+00  0.00000000e+00  1.74944690e-08  1.16137289e-08 -2.91206212e-08  1.24232603e-11 
