 v-sweep         abs(V(alim))    V(drain)        V(gate)         V(source)       V(body)         I(Vd)           I(Vg)           I(Vs)           I(Vb)          
 2.50000000e+01  0.00000000e+00  0.00000000e+00  0.00000000e+00  0.00000000e+00  0.00000000e+00 -2.06067298e-21  3.14711910e-20 -2.06067298e-21 -2.73498451e-20 
 2.50000000e+01  5.00000000e-02  0.00000000e+00  0.00000000e+00  5.00000000e-02  0.00000000e+00  1.50107319e-09  1.82415807e-11 -1.51931477e-09  2.49740201e-19 
 2.50000000e+01  1.00000000e-01  0.00000000e+00  0.00000000e+00  1.00000000e-01  0.00000000e+00  1.91878036e-09  4.96733155e-11 -1.96845367e-09  8.36960394e-19 
 2.50000000e+01  1.50000000e-01  0.00000000e+00  0.00000000e+00  1.50000000e-01  0.00000000e+00  2.24173963e-09  9.77392154e-11 -2.33947885e-09  1.66142623e-18 
 2.50000000e+01  2.00000000e-01  0.00000000e+00  0.00000000e+00  2.00000000e-01  0.00000000e+00  2.58437451e-09  1.66541076e-10 -2.75091559e-09  2.72618541e-18 
 2.50000000e+01  2.50000000e-01  0.00000000e+00  0.00000000e+00  2.50000000e-01  0.00000000e+00  2.96643151e-09  2.60947621e-10 -3.22737914e-09  4.07014718e-18 
 2.50000000e+01  3.00000000e-01  0.00000000e+00  0.00000000e+00  3.00000000e-01  0.00000000e+00  3.39778533e-09  3.86719317e-10 -3.78450465e-09  5.74575990e-18 
 2.50000000e+01  3.50000000e-01  0.00000000e+00  0.00000000e+00  3.50000000e-01  0.00000000e+00  3.88686933e-09  5.50651528e-10 -4.43752086e-09  7.81672443e-18 
 2.50000000e+01  4.00000000e-01  0.00000000e+00  0.00000000e+00  4.00000000e-01  0.00000000e+00  4.44233981e-09  7.60738727e-10 -5.20307854e-09  1.03586774e-17 
 2.50000000e+01  4.50000000e-01  0.00000000e+00  0.00000000e+00  4.50000000e-01  0.00000000e+00  5.07362687e-09  1.02636272e-09 -6.09998961e-09  1.34607224e-17 
 2.50000000e+01  5.00000000e-01  0.00000000e+00  0.00000000e+00  5.00000000e-01  0.00000000e+00  5.79122040e-09  1.35850827e-09 -7.14972869e-09  1.72274177e-17 
 2.50000000e+01  5.50000000e-01  0.00000000e+00  0.00000000e+00  5.50000000e-01  0.00000000e+00  6.60688257e-09  1.77000991e-09 -8.37689250e-09  2.17811409e-17 
 2.50000000e+01  6.00000000e-01  0.00000000e+00  0.00000000e+00  6.00000000e-01  0.00000000e+00  7.53384371e-09  2.27583418e-09 -9.80967791e-09  2.72648309e-17 
 2.50000000e+01  6.50000000e-01  0.00000000e+00  0.00000000e+00  6.50000000e-01  0.00000000e+00  8.58700239e-09  2.89340228e-09 -1.14804047e-08  3.38451384e-17 
 2.50000000e+01  7.00000000e-01  0.00000000e+00  0.00000000e+00  7.00000000e-01  0.00000000e+00  9.78313935e-09  3.64295850e-09 -1.34260979e-08  4.17160291e-17 
 2.50000000e+01  7.50000000e-01  0.00000000e+00  0.00000000e+00  7.50000000e-01  0.00000000e+00  1.11411505e-08  4.54799073e-09 -1.56891413e-08  5.11028909e-17 
 2.50000000e+01  8.00000000e-01  0.00000000e+00  0.00000000e+00  8.00000000e-01  0.00000000e+00  1.26823036e-08  5.63571012e-09 -1.83180138e-08  6.22672079e-17 
 2.50000000e+01  8.50000000e-01  0.00000000e+00  0.00000000e+00  8.50000000e-01  0.00000000e+00  1.44305208e-08  6.93759780e-09 -2.13681186e-08  7.55118643e-17 
 2.50000000e+01  9.00000000e-01  0.00000000e+00  0.00000000e+00  9.00000000e-01  0.00000000e+00  1.64126927e-08  8.49002769e-09 -2.49027205e-08  9.11871548e-17 
 2.50000000e+01  9.50000000e-01  0.00000000e+00  0.00000000e+00  9.50000000e-01  0.00000000e+00  1.86590263e-08  1.03349756e-08 -2.89940022e-08  2.86179732e-16 
 2.50000000e+01  1.00000000e+00  0.00000000e+00  0.00000000e+00  1.00000000e+00  0.00000000e+00  2.12034312e-08  1.25208264e-08 -3.37242605e-08  2.90099414e-15 
 2.50000000e+01  1.05000000e+00  0.00000000e+00  0.00000000e+00  1.05000000e+00  0.00000000e+00  2.40839507e-08  1.51032911e-08 -3.91876062e-08  3.64411853e-13 
 2.50000000e+01  1.10000000e+00  0.00000000e+00  0.00000000e+00  1.10000000e+00  0.00000000e+00  2.73432415e-08  1.81464509e-08 -4.55083294e-08  1.86369759e-11 
