 v-sweep         abs(V(alim))    V(drain)        V(gate)         V(source)       V(body)         I(Vd)           I(Vg)           I(Vs)           I(Vb)          
 2.50000000e+01  0.00000000e+00  0.00000000e+00  0.00000000e+00  0.00000000e+00  0.00000000e+00 -2.63766140e-21  4.02831245e-20 -2.63766140e-21 -3.50078017e-20 
 2.50000000e+01  5.00000000e-02  0.00000000e+00  0.00000000e+00  5.00000000e-02  0.00000000e+00  1.92164794e-09  2.33492233e-11 -1.94499717e-09  3.11051294e-19 
 2.50000000e+01  1.00000000e-01  0.00000000e+00  0.00000000e+00  1.00000000e-01  0.00000000e+00  2.45638115e-09  6.35818438e-11 -2.51996300e-09  1.06138987e-18 
 2.50000000e+01  1.50000000e-01  0.00000000e+00  0.00000000e+00  1.50000000e-01  0.00000000e+00  2.86980571e-09  1.25106196e-10 -2.99491191e-09  2.11649196e-18 
 2.50000000e+01  2.00000000e-01  0.00000000e+00  0.00000000e+00  2.00000000e-01  0.00000000e+00  3.30842276e-09  2.13172578e-10 -3.52159534e-09  3.47935507e-18 
 2.50000000e+01  2.50000000e-01  0.00000000e+00  0.00000000e+00  2.50000000e-01  0.00000000e+00  3.79750920e-09  3.34012955e-10 -4.13152216e-09  5.19965869e-18 
 2.50000000e+01  3.00000000e-01  0.00000000e+00  0.00000000e+00  3.00000000e-01  0.00000000e+00  4.34970490e-09  4.95000725e-10 -4.84470563e-09  7.34452541e-18 
 2.50000000e+01  3.50000000e-01  0.00000000e+00  0.00000000e+00  3.50000000e-01  0.00000000e+00  4.97580526e-09  7.04833955e-10 -5.68063923e-09  9.99549879e-18 
 2.50000000e+01  4.00000000e-01  0.00000000e+00  0.00000000e+00  4.00000000e-01  0.00000000e+00  5.68689138e-09  9.73745568e-10 -6.66063697e-09  1.32494044e-17 
 2.50000000e+01  4.50000000e-01  0.00000000e+00  0.00000000e+00  4.50000000e-01  0.00000000e+00  6.49503510e-09  1.31374428e-09 -7.80877939e-09  1.72203076e-17 
 2.50000000e+01  5.00000000e-01  0.00000000e+00  0.00000000e+00  5.00000000e-01  0.00000000e+00  7.41366498e-09  1.73889058e-09 -9.15255558e-09  2.20420585e-17 
 2.50000000e+01  5.50000000e-01  0.00000000e+00  0.00000000e+00  5.50000000e-01  0.00000000e+00  8.45783841e-09  2.26561267e-09 -1.07234511e-08  2.78713183e-17 
 2.50000000e+01  6.00000000e-01  0.00000000e+00  0.00000000e+00  6.00000000e-01  0.00000000e+00  9.64449223e-09  2.91306773e-09 -1.25575600e-08  3.48910699e-17 
 2.50000000e+01  6.50000000e-01  0.00000000e+00  0.00000000e+00  6.50000000e-01  0.00000000e+00  1.09926989e-08  3.70355489e-09 -1.46962539e-08  4.33146509e-17 
 2.50000000e+01  7.00000000e-01  0.00000000e+00  0.00000000e+00  7.00000000e-01  0.00000000e+00  1.25239404e-08  4.66298684e-09 -1.71869273e-08  5.33903653e-17 
 2.50000000e+01  7.50000000e-01  0.00000000e+00  0.00000000e+00  7.50000000e-01  0.00000000e+00  1.42624064e-08  5.82142808e-09 -2.00838345e-08  6.54067430e-17 
 2.50000000e+01  8.00000000e-01  0.00000000e+00  0.00000000e+00  8.00000000e-01  0.00000000e+00  1.62353225e-08  7.21370888e-09 -2.34490315e-08  7.96985211e-17 
 2.50000000e+01  8.50000000e-01  0.00000000e+00  0.00000000e+00  8.50000000e-01  0.00000000e+00  1.84733130e-08  8.88012507e-09 -2.73534382e-08  9.66534350e-17 
 2.50000000e+01  9.00000000e-01  0.00000000e+00  0.00000000e+00  9.00000000e-01  0.00000000e+00  2.10108018e-08  1.08672353e-08 -3.18780372e-08  1.16719911e-16 
 2.50000000e+01  9.50000000e-01  0.00000000e+00  0.00000000e+00  9.50000000e-01  0.00000000e+00  2.38864577e-08  1.32287686e-08 -3.71152267e-08  3.66191968e-16 
 2.50000000e+01  1.00000000e+00  0.00000000e+00  0.00000000e+00  1.00000000e+00  0.00000000e+00  2.71436900e-08  1.60266574e-08 -4.31703511e-08  3.69240637e-15 
 2.50000000e+01  1.05000000e+00  0.00000000e+00  0.00000000e+00  1.05000000e+00  0.00000000e+00  3.08311988e-08  1.93322121e-08 -5.01638701e-08  4.59111391e-13 
 2.50000000e+01  1.10000000e+00  0.00000000e+00  0.00000000e+00  1.10000000e+00  0.00000000e+00  3.50035904e-08  2.32274565e-08 -5.82545168e-08  2.34698575e-11 
