******
** ngspice-27 : Circuit level simulation program
** The U. C. Berkeley CAD Group
** Copyright 1985-1994, Regents of the University of California.
** Please get your ngspice manual from http://ngspice.sourceforge.net/docs.html
** Please file your bug-reports at http://ngspice.sourceforge.net/bugrep.html
** Creation Date: Tue Dec 26 17:10:20 UTC 2017
******

Circuit: * conduction nmos w *

Doing analysis at TEMP = 27.000000 and TNOM = 27.000000

Warning: toxe, toxp and dtox all given and toxe != toxp + dtox; dtox ignored.
Warning: This model is BSIM4.5.0; you specified a wrong version number '4.0'.
Warning: toxe, toxp and dtox all given and toxe != toxp + dtox; dtox ignored.
Warning: This model is BSIM4.5.0; you specified a wrong version number '4.0'.
Warning: toxe, toxp and dtox all given and toxe != toxp + dtox; dtox ignored.
Warning: This model is BSIM4.5.0; you specified a wrong version number '4.0'.
Warning: toxe, toxp and dtox all given and toxe != toxp + dtox; dtox ignored.
Warning: This model is BSIM4.5.0; you specified a wrong version number '4.0'.
Warning: toxe, toxp and dtox all given and toxe != toxp + dtox; dtox ignored.
Warning: This model is BSIM4.5.0; you specified a wrong version number '4.0'.
Warning: toxe, toxp and dtox all given and toxe != toxp + dtox; dtox ignored.
Warning: This model is BSIM4.5.0; you specified a wrong version number '4.0'.
Warning: toxe, toxp and dtox all given and toxe != toxp + dtox; dtox ignored.
Warning: This model is BSIM4.5.0; you specified a wrong version number '4.0'.
Warning: toxe, toxp and dtox all given and toxe != toxp + dtox; dtox ignored.
Warning: This model is BSIM4.5.0; you specified a wrong version number '4.0'.
Warning: toxe, toxp and dtox all given and toxe != toxp + dtox; dtox ignored.
Warning: This model is BSIM4.5.0; you specified a wrong version number '4.0'.
Warning: toxe, toxp and dtox all given and toxe != toxp + dtox; dtox ignored.
Warning: This model is BSIM4.5.0; you specified a wrong version number '4.0'.
Warning: toxe, toxp and dtox all given and toxe != toxp + dtox; dtox ignored.
Warning: This model is BSIM4.5.0; you specified a wrong version number '4.0'.
Warning: toxe, toxp and dtox all given and toxe != toxp + dtox; dtox ignored.
Warning: This model is BSIM4.5.0; you specified a wrong version number '4.0'.
Warning: toxe, toxp and dtox all given and toxe != toxp + dtox; dtox ignored.
Warning: This model is BSIM4.5.0; you specified a wrong version number '4.0'.
Warning: toxe, toxp and dtox all given and toxe != toxp + dtox; dtox ignored.
Warning: This model is BSIM4.5.0; you specified a wrong version number '4.0'.
Warning: toxe, toxp and dtox all given and toxe != toxp + dtox; dtox ignored.
Warning: This model is BSIM4.5.0; you specified a wrong version number '4.0'.
Warning: toxe, toxp and dtox all given and toxe != toxp + dtox; dtox ignored.
Warning: This model is BSIM4.5.0; you specified a wrong version number '4.0'.
Warning: toxe, toxp and dtox all given and toxe != toxp + dtox; dtox ignored.
Warning: This model is BSIM4.5.0; you specified a wrong version number '4.0'.
Warning: toxe, toxp and dtox all given and toxe != toxp + dtox; dtox ignored.
Warning: This model is BSIM4.5.0; you specified a wrong version number '4.0'.
Warning: toxe, toxp and dtox all given and toxe != toxp + dtox; dtox ignored.
Warning: This model is BSIM4.5.0; you specified a wrong version number '4.0'.
Warning: toxe, toxp and dtox all given and toxe != toxp + dtox; dtox ignored.
Warning: This model is BSIM4.5.0; you specified a wrong version number '4.0'.
Warning: toxe, toxp and dtox all given and toxe != toxp + dtox; dtox ignored.
Warning: This model is BSIM4.5.0; you specified a wrong version number '4.0'.
Warning: toxe, toxp and dtox all given and toxe != toxp + dtox; dtox ignored.
Warning: This model is BSIM4.5.0; you specified a wrong version number '4.0'.
Warning: toxe, toxp and dtox all given and toxe != toxp + dtox; dtox ignored.
Warning: This model is BSIM4.5.0; you specified a wrong version number '4.0'.
Warning: toxe, toxp and dtox all given and toxe != toxp + dtox; dtox ignored.
Warning: This model is BSIM4.5.0; you specified a wrong version number '4.0'.
Warning: toxe, toxp and dtox all given and toxe != toxp + dtox; dtox ignored.
Warning: This model is BSIM4.5.0; you specified a wrong version number '4.0'.
Warning: toxe, toxp and dtox all given and toxe != toxp + dtox; dtox ignored.
Warning: This model is BSIM4.5.0; you specified a wrong version number '4.0'.
Warning: toxe, toxp and dtox all given and toxe != toxp + dtox; dtox ignored.
Warning: This model is BSIM4.5.0; you specified a wrong version number '4.0'.
Warning: toxe, toxp and dtox all given and toxe != toxp + dtox; dtox ignored.
Warning: This model is BSIM4.5.0; you specified a wrong version number '4.0'.
Warning: toxe, toxp and dtox all given and toxe != toxp + dtox; dtox ignored.
Warning: This model is BSIM4.5.0; you specified a wrong version number '4.0'.
Warning: toxe, toxp and dtox all given and toxe != toxp + dtox; dtox ignored.
Warning: This model is BSIM4.5.0; you specified a wrong version number '4.0'.
Warning: toxe, toxp and dtox all given and toxe != toxp + dtox; dtox ignored.
Warning: This model is BSIM4.5.0; you specified a wrong version number '4.0'.
Warning: toxe, toxp and dtox all given and toxe != toxp + dtox; dtox ignored.
Warning: This model is BSIM4.5.0; you specified a wrong version number '4.0'.
Warning: toxe, toxp and dtox all given and toxe != toxp + dtox; dtox ignored.
Warning: This model is BSIM4.5.0; you specified a wrong version number '4.0'.
Warning: toxe, toxp and dtox all given and toxe != toxp + dtox; dtox ignored.
Warning: This model is BSIM4.5.0; you specified a wrong version number '4.0'.
Warning: toxe, toxp and dtox all given and toxe != toxp + dtox; dtox ignored.
Warning: This model is BSIM4.5.0; you specified a wrong version number '4.0'.
Warning: toxe, toxp and dtox all given and toxe != toxp + dtox; dtox ignored.
Warning: This model is BSIM4.5.0; you specified a wrong version number '4.0'.
Warning: toxe, toxp and dtox all given and toxe != toxp + dtox; dtox ignored.
Warning: This model is BSIM4.5.0; you specified a wrong version number '4.0'.
Warning: toxe, toxp and dtox all given and toxe != toxp + dtox; dtox ignored.
Warning: This model is BSIM4.5.0; you specified a wrong version number '4.0'.
Warning: toxe, toxp and dtox all given and toxe != toxp + dtox; dtox ignored.
Warning: This model is BSIM4.5.0; you specified a wrong version number '4.0'.
Warning: toxe, toxp and dtox all given and toxe != toxp + dtox; dtox ignored.
Warning: This model is BSIM4.5.0; you specified a wrong version number '4.0'.
Warning: toxe, toxp and dtox all given and toxe != toxp + dtox; dtox ignored.
Warning: This model is BSIM4.5.0; you specified a wrong version number '4.0'.
Warning: toxe, toxp and dtox all given and toxe != toxp + dtox; dtox ignored.
Warning: This model is BSIM4.5.0; you specified a wrong version number '4.0'.
Warning: toxe, toxp and dtox all given and toxe != toxp + dtox; dtox ignored.
Warning: This model is BSIM4.5.0; you specified a wrong version number '4.0'.
Warning: toxe, toxp and dtox all given and toxe != toxp + dtox; dtox ignored.
Warning: This model is BSIM4.5.0; you specified a wrong version number '4.0'.
Warning: toxe, toxp and dtox all given and toxe != toxp + dtox; dtox ignored.
Warning: This model is BSIM4.5.0; you specified a wrong version number '4.0'.
Warning: toxe, toxp and dtox all given and toxe != toxp + dtox; dtox ignored.
Warning: This model is BSIM4.5.0; you specified a wrong version number '4.0'.
Warning: toxe, toxp and dtox all given and toxe != toxp + dtox; dtox ignored.
Warning: This model is BSIM4.5.0; you specified a wrong version number '4.0'.
Warning: toxe, toxp and dtox all given and toxe != toxp + dtox; dtox ignored.
Warning: This model is BSIM4.5.0; you specified a wrong version number '4.0'.

No. of Data Rows : 23
                             * conduction nmos w *
                             DC transfer characteristic  Tue Mar  5 13:51:52  2024
--------------------------------------------------------------------------------
Index   v-sweep         abs(v(alim))    v(drain)        v(gate)         
--------------------------------------------------------------------------------
0	2.500000e+01	0.000000e+00	0.000000e+00	0.000000e+00	
1	2.500000e+01	5.000000e-02	0.000000e+00	0.000000e+00	
2	2.500000e+01	1.000000e-01	0.000000e+00	0.000000e+00	
3	2.500000e+01	1.500000e-01	0.000000e+00	0.000000e+00	
4	2.500000e+01	2.000000e-01	0.000000e+00	0.000000e+00	
5	2.500000e+01	2.500000e-01	0.000000e+00	0.000000e+00	
6	2.500000e+01	3.000000e-01	0.000000e+00	0.000000e+00	
7	2.500000e+01	3.500000e-01	0.000000e+00	0.000000e+00	
8	2.500000e+01	4.000000e-01	0.000000e+00	0.000000e+00	
9	2.500000e+01	4.500000e-01	0.000000e+00	0.000000e+00	
10	2.500000e+01	5.000000e-01	0.000000e+00	0.000000e+00	
11	2.500000e+01	5.500000e-01	0.000000e+00	0.000000e+00	
12	2.500000e+01	6.000000e-01	0.000000e+00	0.000000e+00	
13	2.500000e+01	6.500000e-01	0.000000e+00	0.000000e+00	
14	2.500000e+01	7.000000e-01	0.000000e+00	0.000000e+00	
15	2.500000e+01	7.500000e-01	0.000000e+00	0.000000e+00	
16	2.500000e+01	8.000000e-01	0.000000e+00	0.000000e+00	
17	2.500000e+01	8.500000e-01	0.000000e+00	0.000000e+00	
18	2.500000e+01	9.000000e-01	0.000000e+00	0.000000e+00	
19	2.500000e+01	9.500000e-01	0.000000e+00	0.000000e+00	
20	2.500000e+01	1.000000e+00	0.000000e+00	0.000000e+00	
21	2.500000e+01	1.050000e+00	0.000000e+00	0.000000e+00	
22	2.500000e+01	1.100000e+00	0.000000e+00	0.000000e+00	

                             * conduction nmos w *
                             DC transfer characteristic  Tue Mar  5 13:51:52  2024
--------------------------------------------------------------------------------
Index   v-sweep         v(source)       v(body)         i(vd)           
--------------------------------------------------------------------------------
0	2.500000e+01	0.000000e+00	0.000000e+00	-5.76988e-21	
1	2.500000e+01	5.000000e-02	0.000000e+00	4.204818e-09	
2	2.500000e+01	1.000000e-01	0.000000e+00	5.374846e-09	
3	2.500000e+01	1.500000e-01	0.000000e+00	6.279374e-09	
4	2.500000e+01	2.000000e-01	0.000000e+00	7.239044e-09	
5	2.500000e+01	2.500000e-01	0.000000e+00	8.309156e-09	
6	2.500000e+01	3.000000e-01	0.000000e+00	9.517361e-09	
7	2.500000e+01	3.500000e-01	0.000000e+00	1.088728e-08	
8	2.500000e+01	4.000000e-01	0.000000e+00	1.244315e-08	
9	2.500000e+01	4.500000e-01	0.000000e+00	1.421139e-08	
10	2.500000e+01	5.000000e-01	0.000000e+00	1.622138e-08	
11	2.500000e+01	5.500000e-01	0.000000e+00	1.850606e-08	
12	2.500000e+01	6.000000e-01	0.000000e+00	2.110250e-08	
13	2.500000e+01	6.500000e-01	0.000000e+00	2.405243e-08	
14	2.500000e+01	7.000000e-01	0.000000e+00	2.740284e-08	
15	2.500000e+01	7.500000e-01	0.000000e+00	3.120667e-08	
16	2.500000e+01	8.000000e-01	0.000000e+00	3.552349e-08	
17	2.500000e+01	8.500000e-01	0.000000e+00	4.042030e-08	
18	2.500000e+01	9.000000e-01	0.000000e+00	4.597243e-08	
19	2.500000e+01	9.500000e-01	0.000000e+00	5.226448e-08	
20	2.500000e+01	1.000000e+00	0.000000e+00	5.939143e-08	
21	2.500000e+01	1.050000e+00	0.000000e+00	6.745983e-08	
22	2.500000e+01	1.100000e+00	0.000000e+00	7.658917e-08	

                             * conduction nmos w *
                             DC transfer characteristic  Tue Mar  5 13:51:52  2024
--------------------------------------------------------------------------------
Index   v-sweep         i(vg)           i(vs)           i(vb)           
--------------------------------------------------------------------------------
0	2.500000e+01	8.811933e-20	-5.76988e-21	-7.65796e-20	
1	2.500000e+01	5.107643e-11	-4.25589e-09	6.438816e-19	
2	2.500000e+01	1.390853e-10	-5.51393e-09	2.279728e-18	
3	2.500000e+01	2.736698e-10	-6.55304e-09	4.586873e-18	
4	2.500000e+01	4.663150e-10	-7.70536e-09	7.568039e-18	
5	2.500000e+01	7.306533e-10	-9.03981e-09	1.133137e-17	
6	2.500000e+01	1.082814e-09	-1.06002e-08	1.602366e-17	
7	2.500000e+01	1.541824e-09	-1.24291e-08	2.182331e-17	
8	2.500000e+01	2.130068e-09	-1.45732e-08	2.894216e-17	
9	2.500000e+01	2.873816e-09	-1.70852e-08	3.762980e-17	
10	2.500000e+01	3.803823e-09	-2.00252e-08	4.817910e-17	
11	2.500000e+01	4.956028e-09	-2.34621e-08	6.093282e-17	
12	2.500000e+01	6.372335e-09	-2.74748e-08	7.629134e-17	
13	2.500000e+01	8.101526e-09	-3.21540e-08	9.472145e-17	
14	2.500000e+01	1.020028e-08	-3.76031e-08	1.167664e-16	
15	2.500000e+01	1.273437e-08	-4.39410e-08	1.430576e-16	
16	2.500000e+01	1.577999e-08	-5.13035e-08	1.743273e-16	
17	2.500000e+01	1.942527e-08	-5.98456e-08	2.114240e-16	
18	2.500000e+01	2.377207e-08	-6.97445e-08	2.553289e-16	
19	2.500000e+01	2.893793e-08	-8.12024e-08	8.005247e-16	
20	2.500000e+01	3.505831e-08	-9.44497e-08	7.988513e-15	
21	2.500000e+01	4.228920e-08	-1.09750e-07	9.731896e-13	
22	2.500000e+01	5.081005e-08	-1.27449e-07	4.970530e-11	
