******
** ngspice-27 : Circuit level simulation program
** The U. C. Berkeley CAD Group
** Copyright 1985-1994, Regents of the University of California.
** Please get your ngspice manual from http://ngspice.sourceforge.net/docs.html
** Please file your bug-reports at http://ngspice.sourceforge.net/bugrep.html
** Creation Date: Tue Dec 26 17:10:20 UTC 2017
******

Circuit: * conduction nmos w *

Doing analysis at TEMP = 27.000000 and TNOM = 27.000000

Warning: toxe, toxp and dtox all given and toxe != toxp + dtox; dtox ignored.
Warning: This model is BSIM4.5.0; you specified a wrong version number '4.0'.
Warning: toxe, toxp and dtox all given and toxe != toxp + dtox; dtox ignored.
Warning: This model is BSIM4.5.0; you specified a wrong version number '4.0'.
Warning: toxe, toxp and dtox all given and toxe != toxp + dtox; dtox ignored.
Warning: This model is BSIM4.5.0; you specified a wrong version number '4.0'.
Warning: toxe, toxp and dtox all given and toxe != toxp + dtox; dtox ignored.
Warning: This model is BSIM4.5.0; you specified a wrong version number '4.0'.
Warning: toxe, toxp and dtox all given and toxe != toxp + dtox; dtox ignored.
Warning: This model is BSIM4.5.0; you specified a wrong version number '4.0'.
Warning: toxe, toxp and dtox all given and toxe != toxp + dtox; dtox ignored.
Warning: This model is BSIM4.5.0; you specified a wrong version number '4.0'.
Warning: toxe, toxp and dtox all given and toxe != toxp + dtox; dtox ignored.
Warning: This model is BSIM4.5.0; you specified a wrong version number '4.0'.
Warning: toxe, toxp and dtox all given and toxe != toxp + dtox; dtox ignored.
Warning: This model is BSIM4.5.0; you specified a wrong version number '4.0'.
Warning: toxe, toxp and dtox all given and toxe != toxp + dtox; dtox ignored.
Warning: This model is BSIM4.5.0; you specified a wrong version number '4.0'.
Warning: toxe, toxp and dtox all given and toxe != toxp + dtox; dtox ignored.
Warning: This model is BSIM4.5.0; you specified a wrong version number '4.0'.
Warning: toxe, toxp and dtox all given and toxe != toxp + dtox; dtox ignored.
Warning: This model is BSIM4.5.0; you specified a wrong version number '4.0'.
Warning: toxe, toxp and dtox all given and toxe != toxp + dtox; dtox ignored.
Warning: This model is BSIM4.5.0; you specified a wrong version number '4.0'.
Warning: toxe, toxp and dtox all given and toxe != toxp + dtox; dtox ignored.
Warning: This model is BSIM4.5.0; you specified a wrong version number '4.0'.
Warning: toxe, toxp and dtox all given and toxe != toxp + dtox; dtox ignored.
Warning: This model is BSIM4.5.0; you specified a wrong version number '4.0'.
Warning: toxe, toxp and dtox all given and toxe != toxp + dtox; dtox ignored.
Warning: This model is BSIM4.5.0; you specified a wrong version number '4.0'.
Warning: toxe, toxp and dtox all given and toxe != toxp + dtox; dtox ignored.
Warning: This model is BSIM4.5.0; you specified a wrong version number '4.0'.
Warning: toxe, toxp and dtox all given and toxe != toxp + dtox; dtox ignored.
Warning: This model is BSIM4.5.0; you specified a wrong version number '4.0'.
Warning: toxe, toxp and dtox all given and toxe != toxp + dtox; dtox ignored.
Warning: This model is BSIM4.5.0; you specified a wrong version number '4.0'.
Warning: toxe, toxp and dtox all given and toxe != toxp + dtox; dtox ignored.
Warning: This model is BSIM4.5.0; you specified a wrong version number '4.0'.
Warning: toxe, toxp and dtox all given and toxe != toxp + dtox; dtox ignored.
Warning: This model is BSIM4.5.0; you specified a wrong version number '4.0'.
Warning: toxe, toxp and dtox all given and toxe != toxp + dtox; dtox ignored.
Warning: This model is BSIM4.5.0; you specified a wrong version number '4.0'.
Warning: toxe, toxp and dtox all given and toxe != toxp + dtox; dtox ignored.
Warning: This model is BSIM4.5.0; you specified a wrong version number '4.0'.
Warning: toxe, toxp and dtox all given and toxe != toxp + dtox; dtox ignored.
Warning: This model is BSIM4.5.0; you specified a wrong version number '4.0'.
Warning: toxe, toxp and dtox all given and toxe != toxp + dtox; dtox ignored.
Warning: This model is BSIM4.5.0; you specified a wrong version number '4.0'.
Warning: toxe, toxp and dtox all given and toxe != toxp + dtox; dtox ignored.
Warning: This model is BSIM4.5.0; you specified a wrong version number '4.0'.
Warning: toxe, toxp and dtox all given and toxe != toxp + dtox; dtox ignored.
Warning: This model is BSIM4.5.0; you specified a wrong version number '4.0'.
Warning: toxe, toxp and dtox all given and toxe != toxp + dtox; dtox ignored.
Warning: This model is BSIM4.5.0; you specified a wrong version number '4.0'.
Warning: toxe, toxp and dtox all given and toxe != toxp + dtox; dtox ignored.
Warning: This model is BSIM4.5.0; you specified a wrong version number '4.0'.
Warning: toxe, toxp and dtox all given and toxe != toxp + dtox; dtox ignored.
Warning: This model is BSIM4.5.0; you specified a wrong version number '4.0'.
Warning: toxe, toxp and dtox all given and toxe != toxp + dtox; dtox ignored.
Warning: This model is BSIM4.5.0; you specified a wrong version number '4.0'.
Warning: toxe, toxp and dtox all given and toxe != toxp + dtox; dtox ignored.
Warning: This model is BSIM4.5.0; you specified a wrong version number '4.0'.
Warning: toxe, toxp and dtox all given and toxe != toxp + dtox; dtox ignored.
Warning: This model is BSIM4.5.0; you specified a wrong version number '4.0'.
Warning: toxe, toxp and dtox all given and toxe != toxp + dtox; dtox ignored.
Warning: This model is BSIM4.5.0; you specified a wrong version number '4.0'.
Warning: toxe, toxp and dtox all given and toxe != toxp + dtox; dtox ignored.
Warning: This model is BSIM4.5.0; you specified a wrong version number '4.0'.
Warning: toxe, toxp and dtox all given and toxe != toxp + dtox; dtox ignored.
Warning: This model is BSIM4.5.0; you specified a wrong version number '4.0'.
Warning: toxe, toxp and dtox all given and toxe != toxp + dtox; dtox ignored.
Warning: This model is BSIM4.5.0; you specified a wrong version number '4.0'.
Warning: toxe, toxp and dtox all given and toxe != toxp + dtox; dtox ignored.
Warning: This model is BSIM4.5.0; you specified a wrong version number '4.0'.
Warning: toxe, toxp and dtox all given and toxe != toxp + dtox; dtox ignored.
Warning: This model is BSIM4.5.0; you specified a wrong version number '4.0'.
Warning: toxe, toxp and dtox all given and toxe != toxp + dtox; dtox ignored.
Warning: This model is BSIM4.5.0; you specified a wrong version number '4.0'.
Warning: toxe, toxp and dtox all given and toxe != toxp + dtox; dtox ignored.
Warning: This model is BSIM4.5.0; you specified a wrong version number '4.0'.
Warning: toxe, toxp and dtox all given and toxe != toxp + dtox; dtox ignored.
Warning: This model is BSIM4.5.0; you specified a wrong version number '4.0'.
Warning: toxe, toxp and dtox all given and toxe != toxp + dtox; dtox ignored.
Warning: This model is BSIM4.5.0; you specified a wrong version number '4.0'.
Warning: toxe, toxp and dtox all given and toxe != toxp + dtox; dtox ignored.
Warning: This model is BSIM4.5.0; you specified a wrong version number '4.0'.
Warning: toxe, toxp and dtox all given and toxe != toxp + dtox; dtox ignored.
Warning: This model is BSIM4.5.0; you specified a wrong version number '4.0'.
Warning: toxe, toxp and dtox all given and toxe != toxp + dtox; dtox ignored.
Warning: This model is BSIM4.5.0; you specified a wrong version number '4.0'.
Warning: toxe, toxp and dtox all given and toxe != toxp + dtox; dtox ignored.
Warning: This model is BSIM4.5.0; you specified a wrong version number '4.0'.
Warning: toxe, toxp and dtox all given and toxe != toxp + dtox; dtox ignored.
Warning: This model is BSIM4.5.0; you specified a wrong version number '4.0'.
Warning: toxe, toxp and dtox all given and toxe != toxp + dtox; dtox ignored.
Warning: This model is BSIM4.5.0; you specified a wrong version number '4.0'.

No. of Data Rows : 23
                             * conduction nmos w *
                             DC transfer characteristic  Tue Mar  5 13:51:47  2024
--------------------------------------------------------------------------------
Index   v-sweep         abs(v(alim))    v(drain)        v(gate)         
--------------------------------------------------------------------------------
0	2.500000e+01	0.000000e+00	0.000000e+00	0.000000e+00	
1	2.500000e+01	5.000000e-02	0.000000e+00	0.000000e+00	
2	2.500000e+01	1.000000e-01	0.000000e+00	0.000000e+00	
3	2.500000e+01	1.500000e-01	0.000000e+00	0.000000e+00	
4	2.500000e+01	2.000000e-01	0.000000e+00	0.000000e+00	
5	2.500000e+01	2.500000e-01	0.000000e+00	0.000000e+00	
6	2.500000e+01	3.000000e-01	0.000000e+00	0.000000e+00	
7	2.500000e+01	3.500000e-01	0.000000e+00	0.000000e+00	
8	2.500000e+01	4.000000e-01	0.000000e+00	0.000000e+00	
9	2.500000e+01	4.500000e-01	0.000000e+00	0.000000e+00	
10	2.500000e+01	5.000000e-01	0.000000e+00	0.000000e+00	
11	2.500000e+01	5.500000e-01	0.000000e+00	0.000000e+00	
12	2.500000e+01	6.000000e-01	0.000000e+00	0.000000e+00	
13	2.500000e+01	6.500000e-01	0.000000e+00	0.000000e+00	
14	2.500000e+01	7.000000e-01	0.000000e+00	0.000000e+00	
15	2.500000e+01	7.500000e-01	0.000000e+00	0.000000e+00	
16	2.500000e+01	8.000000e-01	0.000000e+00	0.000000e+00	
17	2.500000e+01	8.500000e-01	0.000000e+00	0.000000e+00	
18	2.500000e+01	9.000000e-01	0.000000e+00	0.000000e+00	
19	2.500000e+01	9.500000e-01	0.000000e+00	0.000000e+00	
20	2.500000e+01	1.000000e+00	0.000000e+00	0.000000e+00	
21	2.500000e+01	1.050000e+00	0.000000e+00	0.000000e+00	
22	2.500000e+01	1.100000e+00	0.000000e+00	0.000000e+00	

                             * conduction nmos w *
                             DC transfer characteristic  Tue Mar  5 13:51:47  2024
--------------------------------------------------------------------------------
Index   v-sweep         v(source)       v(body)         i(vd)           
--------------------------------------------------------------------------------
0	2.500000e+01	0.000000e+00	0.000000e+00	-2.06067e-21	
1	2.500000e+01	5.000000e-02	0.000000e+00	1.501073e-09	
2	2.500000e+01	1.000000e-01	0.000000e+00	1.918780e-09	
3	2.500000e+01	1.500000e-01	0.000000e+00	2.241740e-09	
4	2.500000e+01	2.000000e-01	0.000000e+00	2.584375e-09	
5	2.500000e+01	2.500000e-01	0.000000e+00	2.966432e-09	
6	2.500000e+01	3.000000e-01	0.000000e+00	3.397785e-09	
7	2.500000e+01	3.500000e-01	0.000000e+00	3.886869e-09	
8	2.500000e+01	4.000000e-01	0.000000e+00	4.442340e-09	
9	2.500000e+01	4.500000e-01	0.000000e+00	5.073627e-09	
10	2.500000e+01	5.000000e-01	0.000000e+00	5.791220e-09	
11	2.500000e+01	5.500000e-01	0.000000e+00	6.606883e-09	
12	2.500000e+01	6.000000e-01	0.000000e+00	7.533844e-09	
13	2.500000e+01	6.500000e-01	0.000000e+00	8.587002e-09	
14	2.500000e+01	7.000000e-01	0.000000e+00	9.783139e-09	
15	2.500000e+01	7.500000e-01	0.000000e+00	1.114115e-08	
16	2.500000e+01	8.000000e-01	0.000000e+00	1.268230e-08	
17	2.500000e+01	8.500000e-01	0.000000e+00	1.443052e-08	
18	2.500000e+01	9.000000e-01	0.000000e+00	1.641269e-08	
19	2.500000e+01	9.500000e-01	0.000000e+00	1.865903e-08	
20	2.500000e+01	1.000000e+00	0.000000e+00	2.120343e-08	
21	2.500000e+01	1.050000e+00	0.000000e+00	2.408395e-08	
22	2.500000e+01	1.100000e+00	0.000000e+00	2.734324e-08	

                             * conduction nmos w *
                             DC transfer characteristic  Tue Mar  5 13:51:47  2024
--------------------------------------------------------------------------------
Index   v-sweep         i(vg)           i(vs)           i(vb)           
--------------------------------------------------------------------------------
0	2.500000e+01	3.147119e-20	-2.06067e-21	-2.73498e-20	
1	2.500000e+01	1.824158e-11	-1.51931e-09	2.497402e-19	
2	2.500000e+01	4.967332e-11	-1.96845e-09	8.369604e-19	
3	2.500000e+01	9.773922e-11	-2.33948e-09	1.661426e-18	
4	2.500000e+01	1.665411e-10	-2.75092e-09	2.726185e-18	
5	2.500000e+01	2.609476e-10	-3.22738e-09	4.070147e-18	
6	2.500000e+01	3.867193e-10	-3.78450e-09	5.745760e-18	
7	2.500000e+01	5.506515e-10	-4.43752e-09	7.816724e-18	
8	2.500000e+01	7.607387e-10	-5.20308e-09	1.035868e-17	
9	2.500000e+01	1.026363e-09	-6.09999e-09	1.346072e-17	
10	2.500000e+01	1.358508e-09	-7.14973e-09	1.722742e-17	
11	2.500000e+01	1.770010e-09	-8.37689e-09	2.178114e-17	
12	2.500000e+01	2.275834e-09	-9.80968e-09	2.726483e-17	
13	2.500000e+01	2.893402e-09	-1.14804e-08	3.384514e-17	
14	2.500000e+01	3.642958e-09	-1.34261e-08	4.171603e-17	
15	2.500000e+01	4.547991e-09	-1.56891e-08	5.110289e-17	
16	2.500000e+01	5.635710e-09	-1.83180e-08	6.226721e-17	
17	2.500000e+01	6.937598e-09	-2.13681e-08	7.551186e-17	
18	2.500000e+01	8.490028e-09	-2.49027e-08	9.118715e-17	
19	2.500000e+01	1.033498e-08	-2.89940e-08	2.861797e-16	
20	2.500000e+01	1.252083e-08	-3.37243e-08	2.900994e-15	
21	2.500000e+01	1.510329e-08	-3.91876e-08	3.644119e-13	
22	2.500000e+01	1.814645e-08	-4.55083e-08	1.863698e-11	
