******
** ngspice-27 : Circuit level simulation program
** The U. C. Berkeley CAD Group
** Copyright 1985-1994, Regents of the University of California.
** Please get your ngspice manual from http://ngspice.sourceforge.net/docs.html
** Please file your bug-reports at http://ngspice.sourceforge.net/bugrep.html
** Creation Date: Tue Dec 26 17:10:20 UTC 2017
******

Circuit: * conduction nmos w *

Doing analysis at TEMP = 27.000000 and TNOM = 27.000000

Warning: toxe, toxp and dtox all given and toxe != toxp + dtox; dtox ignored.
Warning: This model is BSIM4.5.0; you specified a wrong version number '4.0'.
Warning: toxe, toxp and dtox all given and toxe != toxp + dtox; dtox ignored.
Warning: This model is BSIM4.5.0; you specified a wrong version number '4.0'.
Warning: toxe, toxp and dtox all given and toxe != toxp + dtox; dtox ignored.
Warning: This model is BSIM4.5.0; you specified a wrong version number '4.0'.
Warning: toxe, toxp and dtox all given and toxe != toxp + dtox; dtox ignored.
Warning: This model is BSIM4.5.0; you specified a wrong version number '4.0'.
Warning: toxe, toxp and dtox all given and toxe != toxp + dtox; dtox ignored.
Warning: This model is BSIM4.5.0; you specified a wrong version number '4.0'.
Warning: toxe, toxp and dtox all given and toxe != toxp + dtox; dtox ignored.
Warning: This model is BSIM4.5.0; you specified a wrong version number '4.0'.
Warning: toxe, toxp and dtox all given and toxe != toxp + dtox; dtox ignored.
Warning: This model is BSIM4.5.0; you specified a wrong version number '4.0'.
Warning: toxe, toxp and dtox all given and toxe != toxp + dtox; dtox ignored.
Warning: This model is BSIM4.5.0; you specified a wrong version number '4.0'.
Warning: toxe, toxp and dtox all given and toxe != toxp + dtox; dtox ignored.
Warning: This model is BSIM4.5.0; you specified a wrong version number '4.0'.
Warning: toxe, toxp and dtox all given and toxe != toxp + dtox; dtox ignored.
Warning: This model is BSIM4.5.0; you specified a wrong version number '4.0'.
Warning: toxe, toxp and dtox all given and toxe != toxp + dtox; dtox ignored.
Warning: This model is BSIM4.5.0; you specified a wrong version number '4.0'.
Warning: toxe, toxp and dtox all given and toxe != toxp + dtox; dtox ignored.
Warning: This model is BSIM4.5.0; you specified a wrong version number '4.0'.
Warning: toxe, toxp and dtox all given and toxe != toxp + dtox; dtox ignored.
Warning: This model is BSIM4.5.0; you specified a wrong version number '4.0'.
Warning: toxe, toxp and dtox all given and toxe != toxp + dtox; dtox ignored.
Warning: This model is BSIM4.5.0; you specified a wrong version number '4.0'.
Warning: toxe, toxp and dtox all given and toxe != toxp + dtox; dtox ignored.
Warning: This model is BSIM4.5.0; you specified a wrong version number '4.0'.
Warning: toxe, toxp and dtox all given and toxe != toxp + dtox; dtox ignored.
Warning: This model is BSIM4.5.0; you specified a wrong version number '4.0'.
Warning: toxe, toxp and dtox all given and toxe != toxp + dtox; dtox ignored.
Warning: This model is BSIM4.5.0; you specified a wrong version number '4.0'.
Warning: toxe, toxp and dtox all given and toxe != toxp + dtox; dtox ignored.
Warning: This model is BSIM4.5.0; you specified a wrong version number '4.0'.
Warning: toxe, toxp and dtox all given and toxe != toxp + dtox; dtox ignored.
Warning: This model is BSIM4.5.0; you specified a wrong version number '4.0'.
Warning: toxe, toxp and dtox all given and toxe != toxp + dtox; dtox ignored.
Warning: This model is BSIM4.5.0; you specified a wrong version number '4.0'.
Warning: toxe, toxp and dtox all given and toxe != toxp + dtox; dtox ignored.
Warning: This model is BSIM4.5.0; you specified a wrong version number '4.0'.
Warning: toxe, toxp and dtox all given and toxe != toxp + dtox; dtox ignored.
Warning: This model is BSIM4.5.0; you specified a wrong version number '4.0'.
Warning: toxe, toxp and dtox all given and toxe != toxp + dtox; dtox ignored.
Warning: This model is BSIM4.5.0; you specified a wrong version number '4.0'.
Warning: toxe, toxp and dtox all given and toxe != toxp + dtox; dtox ignored.
Warning: This model is BSIM4.5.0; you specified a wrong version number '4.0'.
Warning: toxe, toxp and dtox all given and toxe != toxp + dtox; dtox ignored.
Warning: This model is BSIM4.5.0; you specified a wrong version number '4.0'.
Warning: toxe, toxp and dtox all given and toxe != toxp + dtox; dtox ignored.
Warning: This model is BSIM4.5.0; you specified a wrong version number '4.0'.
Warning: toxe, toxp and dtox all given and toxe != toxp + dtox; dtox ignored.
Warning: This model is BSIM4.5.0; you specified a wrong version number '4.0'.
Warning: toxe, toxp and dtox all given and toxe != toxp + dtox; dtox ignored.
Warning: This model is BSIM4.5.0; you specified a wrong version number '4.0'.
Warning: toxe, toxp and dtox all given and toxe != toxp + dtox; dtox ignored.
Warning: This model is BSIM4.5.0; you specified a wrong version number '4.0'.
Warning: toxe, toxp and dtox all given and toxe != toxp + dtox; dtox ignored.
Warning: This model is BSIM4.5.0; you specified a wrong version number '4.0'.
Warning: toxe, toxp and dtox all given and toxe != toxp + dtox; dtox ignored.
Warning: This model is BSIM4.5.0; you specified a wrong version number '4.0'.
Warning: toxe, toxp and dtox all given and toxe != toxp + dtox; dtox ignored.
Warning: This model is BSIM4.5.0; you specified a wrong version number '4.0'.
Warning: toxe, toxp and dtox all given and toxe != toxp + dtox; dtox ignored.
Warning: This model is BSIM4.5.0; you specified a wrong version number '4.0'.
Warning: toxe, toxp and dtox all given and toxe != toxp + dtox; dtox ignored.
Warning: This model is BSIM4.5.0; you specified a wrong version number '4.0'.
Warning: toxe, toxp and dtox all given and toxe != toxp + dtox; dtox ignored.
Warning: This model is BSIM4.5.0; you specified a wrong version number '4.0'.
Warning: toxe, toxp and dtox all given and toxe != toxp + dtox; dtox ignored.
Warning: This model is BSIM4.5.0; you specified a wrong version number '4.0'.
Warning: toxe, toxp and dtox all given and toxe != toxp + dtox; dtox ignored.
Warning: This model is BSIM4.5.0; you specified a wrong version number '4.0'.
Warning: toxe, toxp and dtox all given and toxe != toxp + dtox; dtox ignored.
Warning: This model is BSIM4.5.0; you specified a wrong version number '4.0'.
Warning: toxe, toxp and dtox all given and toxe != toxp + dtox; dtox ignored.
Warning: This model is BSIM4.5.0; you specified a wrong version number '4.0'.
Warning: toxe, toxp and dtox all given and toxe != toxp + dtox; dtox ignored.
Warning: This model is BSIM4.5.0; you specified a wrong version number '4.0'.
Warning: toxe, toxp and dtox all given and toxe != toxp + dtox; dtox ignored.
Warning: This model is BSIM4.5.0; you specified a wrong version number '4.0'.
Warning: toxe, toxp and dtox all given and toxe != toxp + dtox; dtox ignored.
Warning: This model is BSIM4.5.0; you specified a wrong version number '4.0'.
Warning: toxe, toxp and dtox all given and toxe != toxp + dtox; dtox ignored.
Warning: This model is BSIM4.5.0; you specified a wrong version number '4.0'.
Warning: toxe, toxp and dtox all given and toxe != toxp + dtox; dtox ignored.
Warning: This model is BSIM4.5.0; you specified a wrong version number '4.0'.
Warning: toxe, toxp and dtox all given and toxe != toxp + dtox; dtox ignored.
Warning: This model is BSIM4.5.0; you specified a wrong version number '4.0'.
Warning: toxe, toxp and dtox all given and toxe != toxp + dtox; dtox ignored.
Warning: This model is BSIM4.5.0; you specified a wrong version number '4.0'.
Warning: toxe, toxp and dtox all given and toxe != toxp + dtox; dtox ignored.
Warning: This model is BSIM4.5.0; you specified a wrong version number '4.0'.
Warning: toxe, toxp and dtox all given and toxe != toxp + dtox; dtox ignored.
Warning: This model is BSIM4.5.0; you specified a wrong version number '4.0'.

No. of Data Rows : 23
                             * conduction nmos w *
                             DC transfer characteristic  Tue Mar  5 13:51:49  2024
--------------------------------------------------------------------------------
Index   v-sweep         abs(v(alim))    v(drain)        v(gate)         
--------------------------------------------------------------------------------
0	2.500000e+01	0.000000e+00	0.000000e+00	0.000000e+00	
1	2.500000e+01	5.000000e-02	0.000000e+00	0.000000e+00	
2	2.500000e+01	1.000000e-01	0.000000e+00	0.000000e+00	
3	2.500000e+01	1.500000e-01	0.000000e+00	0.000000e+00	
4	2.500000e+01	2.000000e-01	0.000000e+00	0.000000e+00	
5	2.500000e+01	2.500000e-01	0.000000e+00	0.000000e+00	
6	2.500000e+01	3.000000e-01	0.000000e+00	0.000000e+00	
7	2.500000e+01	3.500000e-01	0.000000e+00	0.000000e+00	
8	2.500000e+01	4.000000e-01	0.000000e+00	0.000000e+00	
9	2.500000e+01	4.500000e-01	0.000000e+00	0.000000e+00	
10	2.500000e+01	5.000000e-01	0.000000e+00	0.000000e+00	
11	2.500000e+01	5.500000e-01	0.000000e+00	0.000000e+00	
12	2.500000e+01	6.000000e-01	0.000000e+00	0.000000e+00	
13	2.500000e+01	6.500000e-01	0.000000e+00	0.000000e+00	
14	2.500000e+01	7.000000e-01	0.000000e+00	0.000000e+00	
15	2.500000e+01	7.500000e-01	0.000000e+00	0.000000e+00	
16	2.500000e+01	8.000000e-01	0.000000e+00	0.000000e+00	
17	2.500000e+01	8.500000e-01	0.000000e+00	0.000000e+00	
18	2.500000e+01	9.000000e-01	0.000000e+00	0.000000e+00	
19	2.500000e+01	9.500000e-01	0.000000e+00	0.000000e+00	
20	2.500000e+01	1.000000e+00	0.000000e+00	0.000000e+00	
21	2.500000e+01	1.050000e+00	0.000000e+00	0.000000e+00	
22	2.500000e+01	1.100000e+00	0.000000e+00	0.000000e+00	

                             * conduction nmos w *
                             DC transfer characteristic  Tue Mar  5 13:51:49  2024
--------------------------------------------------------------------------------
Index   v-sweep         v(source)       v(body)         i(vd)           
--------------------------------------------------------------------------------
0	2.500000e+01	0.000000e+00	0.000000e+00	-2.63766e-21	
1	2.500000e+01	5.000000e-02	0.000000e+00	1.921648e-09	
2	2.500000e+01	1.000000e-01	0.000000e+00	2.456381e-09	
3	2.500000e+01	1.500000e-01	0.000000e+00	2.869806e-09	
4	2.500000e+01	2.000000e-01	0.000000e+00	3.308423e-09	
5	2.500000e+01	2.500000e-01	0.000000e+00	3.797509e-09	
6	2.500000e+01	3.000000e-01	0.000000e+00	4.349705e-09	
7	2.500000e+01	3.500000e-01	0.000000e+00	4.975805e-09	
8	2.500000e+01	4.000000e-01	0.000000e+00	5.686891e-09	
9	2.500000e+01	4.500000e-01	0.000000e+00	6.495035e-09	
10	2.500000e+01	5.000000e-01	0.000000e+00	7.413665e-09	
11	2.500000e+01	5.500000e-01	0.000000e+00	8.457838e-09	
12	2.500000e+01	6.000000e-01	0.000000e+00	9.644492e-09	
13	2.500000e+01	6.500000e-01	0.000000e+00	1.099270e-08	
14	2.500000e+01	7.000000e-01	0.000000e+00	1.252394e-08	
15	2.500000e+01	7.500000e-01	0.000000e+00	1.426241e-08	
16	2.500000e+01	8.000000e-01	0.000000e+00	1.623532e-08	
17	2.500000e+01	8.500000e-01	0.000000e+00	1.847331e-08	
18	2.500000e+01	9.000000e-01	0.000000e+00	2.101080e-08	
19	2.500000e+01	9.500000e-01	0.000000e+00	2.388646e-08	
20	2.500000e+01	1.000000e+00	0.000000e+00	2.714369e-08	
21	2.500000e+01	1.050000e+00	0.000000e+00	3.083120e-08	
22	2.500000e+01	1.100000e+00	0.000000e+00	3.500359e-08	

                             * conduction nmos w *
                             DC transfer characteristic  Tue Mar  5 13:51:49  2024
--------------------------------------------------------------------------------
Index   v-sweep         i(vg)           i(vs)           i(vb)           
--------------------------------------------------------------------------------
0	2.500000e+01	4.028312e-20	-2.63766e-21	-3.50078e-20	
1	2.500000e+01	2.334922e-11	-1.94500e-09	3.110513e-19	
2	2.500000e+01	6.358184e-11	-2.51996e-09	1.061390e-18	
3	2.500000e+01	1.251062e-10	-2.99491e-09	2.116492e-18	
4	2.500000e+01	2.131726e-10	-3.52160e-09	3.479355e-18	
5	2.500000e+01	3.340130e-10	-4.13152e-09	5.199659e-18	
6	2.500000e+01	4.950007e-10	-4.84471e-09	7.344525e-18	
7	2.500000e+01	7.048340e-10	-5.68064e-09	9.995499e-18	
8	2.500000e+01	9.737456e-10	-6.66064e-09	1.324940e-17	
9	2.500000e+01	1.313744e-09	-7.80878e-09	1.722031e-17	
10	2.500000e+01	1.738891e-09	-9.15256e-09	2.204206e-17	
11	2.500000e+01	2.265613e-09	-1.07235e-08	2.787132e-17	
12	2.500000e+01	2.913068e-09	-1.25576e-08	3.489107e-17	
13	2.500000e+01	3.703555e-09	-1.46963e-08	4.331465e-17	
14	2.500000e+01	4.662987e-09	-1.71869e-08	5.339037e-17	
15	2.500000e+01	5.821428e-09	-2.00838e-08	6.540674e-17	
16	2.500000e+01	7.213709e-09	-2.34490e-08	7.969852e-17	
17	2.500000e+01	8.880125e-09	-2.73534e-08	9.665343e-17	
18	2.500000e+01	1.086724e-08	-3.18780e-08	1.167199e-16	
19	2.500000e+01	1.322877e-08	-3.71152e-08	3.661920e-16	
20	2.500000e+01	1.602666e-08	-4.31704e-08	3.692406e-15	
21	2.500000e+01	1.933221e-08	-5.01639e-08	4.591114e-13	
22	2.500000e+01	2.322746e-08	-5.82545e-08	2.346986e-11	
