 temp-sweep      abs(v(alim))    v(drain)        v(gate)         v(source)       v(body)         i(Vd)           i(Vg)           i(Vs)           i(Vb)          
 2.50000000e+01  0.00000000e+00  0.00000000e+00  0.00000000e+00  0.00000000e+00  0.00000000e+00 -5.76993887e-21  8.81201693e-20 -5.76993887e-21 -7.65802916e-20 
 2.50000000e+01  5.00000000e-02  0.00000000e+00  5.00000000e-02  0.00000000e+00  0.00000000e+00  2.22178794e-11 -4.44362429e-11  2.22178794e-11  4.83954332e-16 
 2.50000000e+01  1.00000000e-01  0.00000000e+00  1.00000000e-01  0.00000000e+00  0.00000000e+00  2.23640423e-11 -4.47291371e-11  2.23640423e-11  1.05783910e-15 
 2.50000000e+01  1.50000000e-01  0.00000000e+00  1.50000000e-01  0.00000000e+00  0.00000000e+00  7.34111543e-12 -1.46839624e-11  7.34111543e-12  1.73965934e-15 
 2.50000000e+01  2.00000000e-01  0.00000000e+00  2.00000000e-01  0.00000000e+00  0.00000000e+00  2.86049489e-11 -5.72124986e-11  2.86049489e-11  2.58169802e-15 
 2.50000000e+01  2.50000000e-01  0.00000000e+00  2.50000000e-01  0.00000000e+00  0.00000000e+00  8.90682466e-11 -1.78140253e-10  8.90682466e-11  3.75177778e-15 
 2.50000000e+01  3.00000000e-01  0.00000000e+00  3.00000000e-01  0.00000000e+00  0.00000000e+00  2.00328936e-10 -4.00663613e-10  2.00328936e-10  5.74148715e-15 
 2.50000000e+01  3.50000000e-01  0.00000000e+00  3.50000000e-01  0.00000000e+00  0.00000000e+00  4.47387548e-10 -8.94784968e-10  4.47387548e-10  9.86175704e-15 
 2.50000000e+01  4.00000000e-01  0.00000000e+00  4.00000000e-01  0.00000000e+00  0.00000000e+00  9.56136778e-10 -1.91229307e-09  9.56136778e-10  1.94937514e-14 
 2.50000000e+01  4.50000000e-01  0.00000000e+00  4.50000000e-01  0.00000000e+00  0.00000000e+00  1.75201414e-09 -3.50407159e-09  1.75201414e-09  4.32936949e-14 
 2.50000000e+01  5.00000000e-01  0.00000000e+00  5.00000000e-01  0.00000000e+00  0.00000000e+00  2.85834688e-09 -5.71679692e-09  2.85834688e-09  1.03133845e-13 
 2.50000000e+01  5.50000000e-01  0.00000000e+00  5.50000000e-01  0.00000000e+00  0.00000000e+00  4.33577180e-09 -8.67179700e-09  4.33577180e-09  2.53422135e-13 
 2.50000000e+01  6.00000000e-01  0.00000000e+00  6.00000000e-01  0.00000000e+00  0.00000000e+00  6.26272406e-09 -1.25260761e-08  6.26272406e-09  6.27936966e-13 
 2.50000000e+01  6.50000000e-01  0.00000000e+00  6.50000000e-01  0.00000000e+00  0.00000000e+00  8.73154745e-09 -1.74646480e-08  8.73154745e-09  1.55310412e-12 
 2.50000000e+01  7.00000000e-01  0.00000000e+00  7.00000000e-01  0.00000000e+00  0.00000000e+00  1.18504214e-08 -2.37046638e-08  1.18504214e-08  3.82102118e-12 
 2.50000000e+01  7.50000000e-01  0.00000000e+00  7.50000000e-01  0.00000000e+00  0.00000000e+00  1.57461490e-08 -3.15016429e-08  1.57461490e-08  9.34496499e-12 
 2.50000000e+01  8.00000000e-01  0.00000000e+00  8.00000000e-01  0.00000000e+00  0.00000000e+00  2.05671206e-08 -4.11569677e-08  2.05671206e-08  2.27265762e-11 
 2.50000000e+01  8.50000000e-01  0.00000000e+00  8.50000000e-01  0.00000000e+00  0.00000000e+00  2.64865488e-08 -5.30280809e-08  2.64865488e-08  5.49832156e-11 
 2.50000000e+01  9.00000000e-01  0.00000000e+00  9.00000000e-01  0.00000000e+00  0.00000000e+00  3.37061210e-08 -6.75445893e-08  3.37061210e-08  1.32347290e-10 
 2.50000000e+01  9.50000000e-01  0.00000000e+00  9.50000000e-01  0.00000000e+00  0.00000000e+00  4.24601758e-08 -8.52371433e-08  4.24601758e-08  3.16791771e-10 
 2.50000000e+01  1.00000000e+00  0.00000000e+00  1.00000000e+00  0.00000000e+00  0.00000000e+00  5.30204902e-08 -1.06793901e-07  5.30204902e-08  7.52921364e-10 
 2.50000000e+01  1.05000000e+00  0.00000000e+00  1.05000000e+00  0.00000000e+00  0.00000000e+00  6.57017579e-08 -1.33174646e-07  6.57017579e-08  1.77112998e-09 
 2.50000000e+01  1.10000000e+00  0.00000000e+00  1.10000000e+00  0.00000000e+00  0.00000000e+00  8.08678470e-08 -1.65834994e-07  8.08678470e-08  4.09929999e-09 
