 temp-sweep      abs(v(alim))    v(drain)        v(gate)         v(source)       v(body)         i(Vd)           i(Vg)           i(Vs)           i(Vb)          
 2.50000000e+01  0.00000000e+00  0.00000000e+00  0.00000000e+00  0.00000000e+00  0.00000000e+00 -2.80254178e-21  4.28012252e-20 -2.80254178e-21 -3.71961416e-20 
 2.50000000e+01  5.00000000e-02  0.00000000e+00  5.00000000e-02  0.00000000e+00  0.00000000e+00  1.07915414e-11 -2.15833115e-11  1.07915414e-11  2.35063533e-16 
 2.50000000e+01  1.00000000e-01  0.00000000e+00  1.00000000e-01  0.00000000e+00  0.00000000e+00  1.08625348e-11 -2.17255935e-11  1.08625348e-11  5.13807561e-16 
 2.50000000e+01  1.50000000e-01  0.00000000e+00  1.50000000e-01  0.00000000e+00  0.00000000e+00  3.56568463e-12 -7.13221149e-12  3.56568463e-12  8.44977395e-16 
 2.50000000e+01  2.00000000e-01  0.00000000e+00  2.00000000e-01  0.00000000e+00  0.00000000e+00  1.38938324e-11 -2.77889101e-11  1.38938324e-11  1.25396761e-15 
 2.50000000e+01  2.50000000e-01  0.00000000e+00  2.50000000e-01  0.00000000e+00  0.00000000e+00  4.32617200e-11 -8.65252314e-11  4.32617200e-11  1.82229207e-15 
 2.50000000e+01  3.00000000e-01  0.00000000e+00  3.00000000e-01  0.00000000e+00  0.00000000e+00  9.73026267e-11 -1.94607996e-10  9.73026267e-11  2.78872235e-15 
 2.50000000e+01  3.50000000e-01  0.00000000e+00  3.50000000e-01  0.00000000e+00  0.00000000e+00  2.17302528e-10 -4.34609848e-10  2.17302528e-10  4.78999635e-15 
 2.50000000e+01  4.00000000e-01  0.00000000e+00  4.00000000e-01  0.00000000e+00  0.00000000e+00  4.64409310e-10 -9.28828070e-10  4.64409310e-10  9.46839391e-15 
 2.50000000e+01  4.50000000e-01  0.00000000e+00  4.50000000e-01  0.00000000e+00  0.00000000e+00  8.50978343e-10 -1.70197773e-09  8.50978343e-10  2.10283679e-14 
 2.50000000e+01  5.00000000e-01  0.00000000e+00  5.00000000e-01  0.00000000e+00  0.00000000e+00  1.38834002e-09 -2.77673018e-09  1.38834002e-09  5.00935892e-14 
 2.50000000e+01  5.50000000e-01  0.00000000e+00  5.50000000e-01  0.00000000e+00  0.00000000e+00  2.10594651e-09 -4.21201607e-09  2.10594651e-09  1.23090779e-13 
 2.50000000e+01  6.00000000e-01  0.00000000e+00  6.00000000e-01  0.00000000e+00  0.00000000e+00  3.04189493e-09 -6.08409489e-09  3.04189493e-09  3.04998056e-13 
 2.50000000e+01  6.50000000e-01  0.00000000e+00  6.50000000e-01  0.00000000e+00  0.00000000e+00  4.24103802e-09 -8.48283044e-09  4.24103802e-09  7.54365206e-13 
 2.50000000e+01  7.00000000e-01  0.00000000e+00  7.00000000e-01  0.00000000e+00  0.00000000e+00  5.75592012e-09 -1.15136961e-08  5.75592012e-09  1.85592572e-12 
 2.50000000e+01  7.50000000e-01  0.00000000e+00  7.50000000e-01  0.00000000e+00  0.00000000e+00  7.64813143e-09 -1.53008018e-08  7.64813143e-09  4.53898670e-12 
 2.50000000e+01  8.00000000e-01  0.00000000e+00  8.00000000e-01  0.00000000e+00  0.00000000e+00  9.98974737e-09 -1.99905333e-08  9.98974737e-09  1.10386344e-11 
 2.50000000e+01  8.50000000e-01  0.00000000e+00  8.50000000e-01  0.00000000e+00  0.00000000e+00  1.28649000e-08 -2.57565062e-08  1.28649000e-08  2.67061696e-11 
 2.50000000e+01  9.00000000e-01  0.00000000e+00  9.00000000e-01  0.00000000e+00  0.00000000e+00  1.63715521e-08 -3.28073873e-08  1.63715521e-08  6.42830802e-11 
 2.50000000e+01  9.50000000e-01  0.00000000e+00  9.50000000e-01  0.00000000e+00  0.00000000e+00  2.06235255e-08 -4.14009216e-08  2.06235255e-08  1.53870621e-10 
 2.50000000e+01  1.00000000e+00  0.00000000e+00  1.00000000e+00  0.00000000e+00  0.00000000e+00  2.57528269e-08 -5.18713594e-08  2.57528269e-08  3.65705641e-10 
 2.50000000e+01  1.05000000e+00  0.00000000e+00  1.05000000e+00  0.00000000e+00  0.00000000e+00  3.19123085e-08 -6.46848830e-08  3.19123085e-08  8.60265962e-10 
 2.50000000e+01  1.10000000e+00  0.00000000e+00  1.10000000e+00  0.00000000e+00  0.00000000e+00  3.92787073e-08 -8.05485112e-08  3.92787073e-08  1.99109653e-09 
