 temp-sweep      abs(v(alim))    v(drain)        v(gate)         v(source)       v(body)         i(Vd)           i(Vg)           i(Vs)           i(Vb)          
 2.50000000e+01  0.00000000e+00  0.00000000e+00  0.00000000e+00  0.00000000e+00  0.00000000e+00 -1.31884320e-21  2.01417530e-20 -1.31884320e-21 -1.75040667e-20 
 2.50000000e+01  5.00000000e-02  0.00000000e+00  5.00000000e-02  0.00000000e+00  0.00000000e+00  5.07837243e-12 -1.01568753e-11  5.07837243e-12  1.10618133e-16 
 2.50000000e+01  1.00000000e-01  0.00000000e+00  1.00000000e-01  0.00000000e+00  0.00000000e+00  5.11178110e-12 -1.02237940e-11  5.11178110e-12  2.41791793e-16 
 2.50000000e+01  1.50000000e-01  0.00000000e+00  1.50000000e-01  0.00000000e+00  0.00000000e+00  1.67796924e-12 -3.35631523e-12  1.67796924e-12  3.97636421e-16 
 2.50000000e+01  2.00000000e-01  0.00000000e+00  2.00000000e-01  0.00000000e+00  0.00000000e+00  6.53827407e-12 -1.30770950e-11  6.53827407e-12  5.90102406e-16 
 2.50000000e+01  2.50000000e-01  0.00000000e+00  2.50000000e-01  0.00000000e+00  0.00000000e+00  2.03584565e-11 -4.07177625e-11  2.03584565e-11  8.57549209e-16 
 2.50000000e+01  3.00000000e-01  0.00000000e+00  3.00000000e-01  0.00000000e+00  0.00000000e+00  4.57894715e-11 -9.15801879e-11  4.57894715e-11  1.31233993e-15 
 2.50000000e+01  3.50000000e-01  0.00000000e+00  3.50000000e-01  0.00000000e+00  0.00000000e+00  1.02260014e-10 -2.04522288e-10  1.02260014e-10  2.25411594e-15 
 2.50000000e+01  4.00000000e-01  0.00000000e+00  4.00000000e-01  0.00000000e+00  0.00000000e+00  2.18545560e-10 -4.37095582e-10  2.18545560e-10  4.45571483e-15 
 2.50000000e+01  4.50000000e-01  0.00000000e+00  4.50000000e-01  0.00000000e+00  0.00000000e+00  4.00460402e-10 -8.00930877e-10  4.00460402e-10  9.89570275e-15 
 2.50000000e+01  5.00000000e-01  0.00000000e+00  5.00000000e-01  0.00000000e+00  0.00000000e+00  6.53336490e-10 -1.30669653e-09  6.53336490e-10  2.35734546e-14 
 2.50000000e+01  5.50000000e-01  0.00000000e+00  5.50000000e-01  0.00000000e+00  0.00000000e+00  9.91033675e-10 -1.98212535e-09  9.91033675e-10  5.79250759e-14 
 2.50000000e+01  6.00000000e-01  0.00000000e+00  6.00000000e-01  0.00000000e+00  0.00000000e+00  1.43148001e-09 -2.86310353e-09  1.43148001e-09  1.43528508e-13 
 2.50000000e+01  6.50000000e-01  0.00000000e+00  6.50000000e-01  0.00000000e+00  0.00000000e+00  1.99578268e-09 -3.99192013e-09  1.99578268e-09  3.54995431e-13 
 2.50000000e+01  7.00000000e-01  0.00000000e+00  7.00000000e-01  0.00000000e+00  0.00000000e+00  2.70866843e-09 -5.41821055e-09  2.70866843e-09  8.73376942e-13 
 2.50000000e+01  7.50000000e-01  0.00000000e+00  7.50000000e-01  0.00000000e+00  0.00000000e+00  3.59912090e-09 -7.20037785e-09  3.59912090e-09  2.13599417e-12 
 2.50000000e+01  8.00000000e-01  0.00000000e+00  8.00000000e-01  0.00000000e+00  0.00000000e+00  4.70105795e-09 -9.40731071e-09  4.70105795e-09  5.19465285e-12 
 2.50000000e+01  8.50000000e-01  0.00000000e+00  8.50000000e-01  0.00000000e+00  0.00000000e+00  6.05407116e-09 -1.21207098e-08  6.05407116e-09  1.25676134e-11 
 2.50000000e+01  9.00000000e-01  0.00000000e+00  9.00000000e-01  0.00000000e+00  0.00000000e+00  7.70426067e-09 -1.54387720e-08  7.70426067e-09  3.02508740e-11 
 2.50000000e+01  9.50000000e-01  0.00000000e+00  9.50000000e-01  0.00000000e+00  0.00000000e+00  9.70518982e-09 -1.94827892e-08  9.70518982e-09  7.24097421e-11 
 2.50000000e+01  1.00000000e+00  0.00000000e+00  1.00000000e+00  0.00000000e+00  0.00000000e+00  1.21189794e-08 -2.44100558e-08  1.21189794e-08  1.72096885e-10 
 2.50000000e+01  1.05000000e+00  0.00000000e+00  1.05000000e+00  0.00000000e+00  0.00000000e+00  1.50175599e-08 -3.04399510e-08  1.50175599e-08  4.04831368e-10 
 2.50000000e+01  1.10000000e+00  0.00000000e+00  1.10000000e+00  0.00000000e+00  0.00000000e+00  1.84841020e-08 -3.79051914e-08  1.84841020e-08  9.36987524e-10 
