 temp-sweep      abs(v(alim))    v(drain)        v(gate)         v(source)       v(body)         i(Vd)           i(Vg)           i(Vs)           i(Vb)          
 2.50000000e+01  0.00000000e+00  0.00000000e+00  0.00000000e+00  0.00000000e+00  0.00000000e+00 -2.06069249e-21  3.14714891e-20 -2.06069249e-21 -2.73501041e-20 
 2.50000000e+01  5.00000000e-02  0.00000000e+00  5.00000000e-02  0.00000000e+00  0.00000000e+00  7.93495693e-12 -1.58700830e-11  7.93495693e-12  1.72840833e-16 
 2.50000000e+01  1.00000000e-01  0.00000000e+00  1.00000000e-01  0.00000000e+00  0.00000000e+00  7.98715797e-12 -1.59746938e-11  7.98715797e-12  3.77799677e-16 
 2.50000000e+01  1.50000000e-01  0.00000000e+00  1.50000000e-01  0.00000000e+00  0.00000000e+00  2.62182694e-12 -5.24427723e-12  2.62182694e-12  6.21306908e-16 
 2.50000000e+01  2.00000000e-01  0.00000000e+00  2.00000000e-01  0.00000000e+00  0.00000000e+00  1.02160532e-11 -2.04329886e-11  1.02160532e-11  9.22035009e-16 
 2.50000000e+01  2.50000000e-01  0.00000000e+00  2.50000000e-01  0.00000000e+00  0.00000000e+00  3.18100882e-11 -6.36215525e-11  3.18100882e-11  1.33992064e-15 
 2.50000000e+01  3.00000000e-01  0.00000000e+00  3.00000000e-01  0.00000000e+00  0.00000000e+00  7.15460492e-11 -1.43094148e-10  7.15460492e-11  2.05053114e-15 
 2.50000000e+01  3.50000000e-01  0.00000000e+00  3.50000000e-01  0.00000000e+00  0.00000000e+00  1.59781271e-10 -3.19566096e-10  1.59781271e-10  3.52205615e-15 
 2.50000000e+01  4.00000000e-01  0.00000000e+00  4.00000000e-01  0.00000000e+00  0.00000000e+00  3.41477435e-10 -6.82961798e-10  3.41477435e-10  6.96205439e-15 
 2.50000000e+01  4.50000000e-01  0.00000000e+00  4.50000000e-01  0.00000000e+00  0.00000000e+00  6.25719375e-10 -1.25145427e-09  6.25719375e-10  1.54620354e-14 
 2.50000000e+01  5.00000000e-01  0.00000000e+00  5.00000000e-01  0.00000000e+00  0.00000000e+00  1.02083826e-09 -2.04171335e-09  1.02083826e-09  3.68335222e-14 
 2.50000000e+01  5.50000000e-01  0.00000000e+00  5.50000000e-01  0.00000000e+00  0.00000000e+00  1.54849010e-09 -3.09707071e-09  1.54849010e-09  9.05079291e-14 
 2.50000000e+01  6.00000000e-01  0.00000000e+00  6.00000000e-01  0.00000000e+00  0.00000000e+00  2.23668749e-09 -4.47359905e-09  2.23668749e-09  2.24263287e-13 
 2.50000000e+01  6.50000000e-01  0.00000000e+00  6.50000000e-01  0.00000000e+00  0.00000000e+00  3.11841038e-09 -6.23737539e-09  3.11841038e-09  5.54680335e-13 
 2.50000000e+01  7.00000000e-01  0.00000000e+00  7.00000000e-01  0.00000000e+00  0.00000000e+00  4.23229433e-09 -8.46595316e-09  4.23229433e-09  1.36465139e-12 
 2.50000000e+01  7.50000000e-01  0.00000000e+00  7.50000000e-01  0.00000000e+00  0.00000000e+00  5.62362626e-09 -1.12505900e-08  5.62362626e-09  3.33749061e-12 
 2.50000000e+01  8.00000000e-01  0.00000000e+00  8.00000000e-01  0.00000000e+00  0.00000000e+00  7.34540281e-09 -1.46989221e-08  7.34540281e-09  8.11664420e-12 
 2.50000000e+01  8.50000000e-01  0.00000000e+00  8.50000000e-01  0.00000000e+00  0.00000000e+00  9.45948583e-09 -1.89386087e-08  9.45948583e-09  1.96368932e-11 
 2.50000000e+01  9.00000000e-01  0.00000000e+00  9.00000000e-01  0.00000000e+00  0.00000000e+00  1.20379067e-08 -2.41230804e-08  1.20379067e-08  4.72669825e-11 
 2.50000000e+01  9.50000000e-01  0.00000000e+00  9.50000000e-01  0.00000000e+00  0.00000000e+00  1.51643582e-08 -3.04418568e-08  1.51643582e-08  1.13140197e-10 
 2.50000000e+01  1.00000000e+00  0.00000000e+00  1.00000000e+00  0.00000000e+00  0.00000000e+00  1.89359040e-08 -3.81407093e-08  1.89359040e-08  2.68901310e-10 
 2.50000000e+01  1.05000000e+00  0.00000000e+00  1.05000000e+00  0.00000000e+00  0.00000000e+00  2.34649355e-08 -4.75624198e-08  2.34649355e-08  6.32548801e-10 
 2.50000000e+01  1.10000000e+00  0.00000000e+00  1.10000000e+00  0.00000000e+00  0.00000000e+00  2.88814065e-08 -5.92268554e-08  2.88814065e-08  1.46404241e-09 
