 temp-sweep      abs(v(alim))    v(drain)        v(gate)         v(source)       v(body)         i(Vd)           i(Vg)           i(Vs)           i(Vb)          
 2.50000000e+01  0.00000000e+00  0.00000000e+00  0.00000000e+00  0.00000000e+00  0.00000000e+00 -4.28624034e-21  6.54606973e-20 -4.28624034e-21 -5.68882166e-20 
 2.50000000e+01  5.00000000e-02  0.00000000e+00  5.00000000e-02  0.00000000e+00  0.00000000e+00  1.65047104e-11 -3.30097824e-11  1.65047104e-11  3.59508933e-16 
 2.50000000e+01  1.00000000e-01  0.00000000e+00  1.00000000e-01  0.00000000e+00  0.00000000e+00  1.66132886e-11 -3.32273514e-11  1.66132886e-11  7.85823328e-16 
 2.50000000e+01  1.50000000e-01  0.00000000e+00  1.50000000e-01  0.00000000e+00  0.00000000e+00  5.45340003e-12 -1.09080800e-11  5.45340003e-12  1.29231837e-15 
 2.50000000e+01  2.00000000e-01  0.00000000e+00  2.00000000e-01  0.00000000e+00  0.00000000e+00  2.12493907e-11 -4.25006974e-11  2.12493907e-11  1.91783282e-15 
 2.50000000e+01  2.50000000e-01  0.00000000e+00  2.50000000e-01  0.00000000e+00  0.00000000e+00  6.61649833e-11 -1.32332756e-10  6.61649833e-11  2.78703493e-15 
 2.50000000e+01  3.00000000e-01  0.00000000e+00  3.00000000e-01  0.00000000e+00  0.00000000e+00  1.48815781e-10 -2.97635833e-10  1.48815781e-10  4.26510476e-15 
 2.50000000e+01  3.50000000e-01  0.00000000e+00  3.50000000e-01  0.00000000e+00  0.00000000e+00  3.32345040e-10 -6.64697408e-10  3.32345040e-10  7.32587673e-15 
 2.50000000e+01  4.00000000e-01  0.00000000e+00  4.00000000e-01  0.00000000e+00  0.00000000e+00  7.10273051e-10 -1.42056061e-09  7.10273051e-10  1.44810728e-14 
 2.50000000e+01  4.50000000e-01  0.00000000e+00  4.50000000e-01  0.00000000e+00  0.00000000e+00  1.30149626e-09 -2.60302468e-09  1.30149626e-09  3.21610321e-14 
 2.50000000e+01  5.00000000e-01  0.00000000e+00  5.00000000e-01  0.00000000e+00  0.00000000e+00  2.12334349e-09 -4.24676355e-09  2.12334349e-09  7.66137199e-14 
 2.50000000e+01  5.50000000e-01  0.00000000e+00  5.50000000e-01  0.00000000e+00  0.00000000e+00  3.22085923e-09 -6.44190673e-09  3.22085923e-09  1.88256468e-13 
 2.50000000e+01  6.00000000e-01  0.00000000e+00  6.00000000e-01  0.00000000e+00  0.00000000e+00  4.65230965e-09 -9.30508570e-09  4.65230965e-09  4.66467551e-13 
 2.50000000e+01  6.50000000e-01  0.00000000e+00  6.50000000e-01  0.00000000e+00  0.00000000e+00  6.48629300e-09 -1.29737397e-08  6.48629300e-09  1.15373480e-12 
 2.50000000e+01  7.00000000e-01  0.00000000e+00  7.00000000e-01  0.00000000e+00  0.00000000e+00  8.80317121e-09 -1.76091809e-08  8.80317121e-09  2.83847390e-12 
 2.50000000e+01  7.50000000e-01  0.00000000e+00  7.50000000e-01  0.00000000e+00  0.00000000e+00  1.16971410e-08 -2.34012238e-08  1.16971410e-08  6.94197731e-12 
 2.50000000e+01  8.00000000e-01  0.00000000e+00  8.00000000e-01  0.00000000e+00  0.00000000e+00  1.52784352e-08 -3.05737529e-08  1.52784352e-08  1.68826099e-11 
 2.50000000e+01  8.50000000e-01  0.00000000e+00  8.50000000e-01  0.00000000e+00  0.00000000e+00  1.96757263e-08 -3.93922974e-08  1.96757263e-08  4.08447069e-11 
 2.50000000e+01  9.00000000e-01  0.00000000e+00  9.00000000e-01  0.00000000e+00  0.00000000e+00  2.50388395e-08 -5.01759942e-08  2.50388395e-08  9.83152290e-11 
 2.50000000e+01  9.50000000e-01  0.00000000e+00  9.50000000e-01  0.00000000e+00  0.00000000e+00  3.15418552e-08 -6.33190418e-08  3.15418552e-08  2.35331327e-10 
 2.50000000e+01  1.00000000e+00  0.00000000e+00  1.00000000e+00  0.00000000e+00  0.00000000e+00  3.93866654e-08 -7.93326447e-08  3.93866654e-08  5.59313889e-10 
 2.50000000e+01  1.05000000e+00  0.00000000e+00  1.05000000e+00  0.00000000e+00  0.00000000e+00  4.88070435e-08 -9.89297860e-08  4.88070435e-08  1.31569909e-09 
 2.50000000e+01  1.10000000e+00  0.00000000e+00  1.10000000e+00  0.00000000e+00  0.00000000e+00  6.00732925e-08 -1.23191786e-07  6.00732925e-08  3.04520140e-09 
